! S11 = S11
! S12 = S12
! S13 = S13
! S14 = S14
! S21 = S21
! S22 = S22
! S23 = S23
! S24 = S24
! S31 = S31
! S32 = S32
! S33 = S33
! S34 = S34
! S41 = S41
! S42 = S42
! S43 = S43
! S44 = S44
!
! FILE: E:\Projects\06_2015\060415_VNA_EOS_MUX_EVAL\SI-489-3_EOS_MUX_EVAL_A0_B0_SEL=1.s4p
!$DUT_CFG_DESC: Default 4-Port Configuration
!$NUMBER_PORTS: 4
!$DIFF_PORT_MAP: 1|2P|2|2P|0|UC|0|UC|
!$PORT_MAP: 1|1|<<<<<<|2|2|>>>>>>|3|3|<<<<<<|4|4|>>>>>>|
!
# MHz S RI R 50.00
!
! FREQ                  		S11                         			   S12                         			   S13                         			   S14
!                       		S21                         			   S22                         			   S23                         			   S24
!                       		S31                         			   S32                         			   S33                         			   S34
!                       		S41                         			   S42                         			   S43                         			   S44
!                       		
!                  	REAL     		    IMAG               	      REAL     		    IMAG               	      REAL     		    IMAG               	      REAL     		    IMAG               	      
10.00000000        0.11101633310318    0.0265956204384565    -1.35975087687257e-005  -0.000305118359392509     0.00428278325125575    0.0338123664259911    -0.000171343388501555  -0.000568250543437898    
               -7.58470414439216e-005  -0.000447594677098095       0.104965426027775    0.0225740876048803    0.000101214478490874  -0.000376222538761795     0.00479071540758014    0.0336633399128914    
                0.00476277805864811     0.033761128783226    -8.15043313195929e-005  -0.000277947401627898       0.106572337448597    0.0232412572950125    -0.00013169544399716  -0.000461051124148071    
               -0.000425191625254229  -0.000527853611856699     0.00486148241907358    0.0332598350942135    -0.000170674495166168  -0.000383215316105634       0.110415279865265    0.0254780203104019    
               
20.00000000       0.121971182525158    0.0536387898027897    -0.000560161541216075  -0.000677251489832997      0.0161246154457331    0.0647647678852081    -0.000726362224668264  -0.00118458434008062    
               -0.000808892538771033  -0.000623115687631071       0.116044647991657    0.0476406887173653    -0.000521568639669567  -0.000798686407506466      0.0173701327294111    0.0641603246331215    
                 0.0158681534230709    0.0647452920675278    -0.000313443917548284  -0.000887386966496706       0.116255857050419    0.0471928529441357    -0.000752044026739895  -0.000751195300836116    
               -0.000729654566384852  -0.00111633271444589       0.017479320988059    0.0642000585794449    -0.000734128581825644  -0.000748144928365946        0.12187984585762    0.0527423061430454    
               
30.00000000       0.138833701610565    0.0760540366172791    -0.00123509916011244  -0.000681129866279662      0.0338139235973358    0.0919057279825211    -0.00134044792503119  -0.00130250677466393    
               -0.00121620763093233  -0.000685111794155091       0.132864519953728    0.0678526163101196    -0.00106752931606025  -0.00105858431197703      0.0367409959435463     0.090397834777832    
                 0.0338378585875034    0.0920331180095673    -0.00106270029209554  -0.00100145814940333       0.131404474377632    0.0668157264590263    -0.00121719890739769  -0.000621371727902442    
                -0.0013054886367172  -0.00117293826770037      0.0368650406599045     0.090370386838913    -0.00112746097147465  -0.000552094890736043       0.140499368309975    0.0751499831676483    
               
40.00000000       0.160376131534576    0.0938211977481842    -0.00167601136490703  -0.000385977647965774      0.0560441054403782     0.114126473665237    -0.00192613119725138  -0.00113025482278317    
               -0.00165455765090883  -0.000461199728306383       0.154401540756226     0.082489088177681    -0.00153269071597606  -0.000911262235604227      0.0610534846782684     0.110937513411045    
                 0.0561781786382198      0.11427279561758    -0.00153681030496955  -0.00104637781623751       0.150656476616859    0.0822371765971184    -0.00170949124731123  -0.000509984092786908    
               -0.00182265229523182  -0.00123562791850418      0.0611385032534599     0.110822461545467    -0.00183066516183317  -0.000530207646079361        0.16373810172081    0.0918417274951935    
               
50.00000000       0.185039862990379     0.106101244688034    -0.00217973557300866  6.01326064497698e-005      0.0816897749900818     0.131281018257141    -0.00236571650020778  -0.000886699883267283    
               -0.00216992711648345  4.41075098933652e-005       0.178930327296257    0.0917687192559242    -0.00199511181563139  -0.000706413935404271      0.0886463150382042     0.125603526830673    
                 0.0817036107182503      0.13137412071228    -0.00188347126822919  -0.00059749250067398       0.172922387719154    0.0925548300147057    -0.00227756472304463  -1.06492625491228e-005    
               -0.00242479797452688  -0.000985956401564181      0.0888638719916344     0.125535607337952    -0.00228930823504925  3.96586801798549e-006       0.190838634967804     0.102308169007301    
               
60.00000000       0.211769193410873     0.113228969275951    -0.00256768008694053   0.00070465006865561       0.109139442443848     0.142770662903786    -0.00283512892201543  -0.000540427456144243    
               -0.00266074039973319  0.000537506944965571       0.205087184906006    0.0951143354177475    -0.00246245577000082  -0.000315961544401944       0.118255816400051      0.13387531042099    
                  0.109745010733604     0.142850205302238    -0.00238517671823502  -0.000266040820861235       0.196763396263123    0.0978461727499962    -0.00252385181374848  0.000551705830730498    
               -0.00297217699699104  -0.000600709754507989       0.118739567697048     0.133985564112663    -0.00244818325154483  0.000596849131397903       0.219635382294655     0.106174647808075    
               
70.00000000       0.238919004797935     0.114616498351097    -0.00276202731765807   0.00135159096680582       0.137766286730766     0.148947328329086    -0.00313448184169829  1.26120028198784e-006    
               -0.00270646368153393   0.00141249073203653       0.231463849544525    0.0927807614207268    -0.00255140336230397   0.00019895561854355       0.148479431867599      0.13603687286377    
                  0.137926772236824     0.149127393960953    -0.00264108763076365  0.000207958408282138       0.221060380339623    0.0984626859426498    -0.00289048254489899   0.00131189951207489    
               -0.00312130176462233  -5.98892038397025e-005       0.148409783840179     0.136113166809082    -0.00272020231932402   0.00145770388189703       0.248403176665306     0.104487672448158    
               
80.00000000       0.265757471323013     0.111162431538105    -0.00267177238129079   0.00204288330860436       0.166049540042877     0.150147214531899    -0.00331511977128685  0.000617623038124293    
               -0.00267832935787737   0.00205491599626839       0.256683140993118    0.0854590237140656    -0.00280728214420378  0.000917411933187395       0.177812829613686     0.132785871624947    
                  0.166247174143791     0.150301322340965    -0.00281073921360075  0.000799565634224564       0.244978711009026    0.0943483114242554    -0.00273622618988156   0.00211552903056145    
               -0.00327205145731568   0.00067585805663839       0.177976056933403      0.13282036781311    -0.00278659840114415   0.00222397106699646       0.276652604341507    0.0963407829403877    
               
90.00000000       0.291299849748611     0.102975890040398    -0.00253392360173166   0.00290148705244064       0.193296641111374      0.14687480032444    -0.00335465231910348    0.0012401855783537    
               -0.00248875864781439   0.00288995332084596       0.280639946460724    0.0733433738350868    -0.00268572405911982   0.00136574252974242       0.205792233347893     0.124506138265133    
                  0.193386748433113     0.147104904055595    -0.00264221639372408   0.00140069075860083       0.267642349004745    0.0861654132604599    -0.00254559959284961   0.00297043053433299    
               -0.00331282801926136   0.00128605263307691       0.205878421664238     0.124689415097237    -0.00269975676201284   0.00305906496942043       0.303073704242706    0.0837854072451591    
               
100.00000000       0.315091550350189    0.0909418612718582    -0.00208095787093043   0.00363501836545765       0.219042122364044     0.139703586697578    -0.00320953340269625   0.00177709490526468    
               -0.00213826959952712   0.00365000008605421       0.302069157361984    0.0573189295828342    -0.00249265087768435    0.0019481327617541       0.231482997536659     0.112030044198036    
                  0.219288140535355     0.139877960085869     -0.0025138498749584   0.00199902104213834       0.288609892129898    0.0743929073214531    -0.00229000207036734   0.00368210370652378    
               -0.00323822069913149   0.00180725450627506       0.231642797589302       0.1120820119977    -0.00221787113696337   0.00364178023301065       0.326878368854523    0.0666582658886909    
               
110.00000000       0.336519330739975    0.0756704658269882    -0.00158662465400994   0.00429780874401331       0.242842063307762     0.129286229610443     -0.0028680139221251   0.00236781011335552    
               -0.00160445179790258   0.00435926020145416       0.320681422948837    0.0381012447178364     -0.0022443023044616    0.0024443285074085       0.254630595445633     0.095944806933403    
                  0.243095710873604     0.129454970359802    -0.00219785002991557   0.00243369140662253       0.307461112737656    0.0596525445580482    -0.00167891592718661   0.00438585644587874    
               -0.00293274573050439     0.002414814196527        0.25476461648941    0.0958636552095413    -0.00178402964957058   0.00435850443318486       0.348142027854919    0.0460351556539536    
               
120.00000000       0.355556935071945    0.0577390044927597    -0.000966763298492879   0.00483489921316504       0.264441668987274      0.11600998044014    -0.00252704904414713   0.00283683696761727    
               -0.000979096279479563   0.00484471675008535       0.336433500051498     0.016371900215745    -0.00187370122876018   0.00287667126394808       0.274859637022018     0.076843686401844    
                  0.264693140983582     0.116220042109489    -0.00188134086783975   0.00284241605550051       0.323990404605865    0.0427168644964695    -0.00111137621570379   0.00500552449375391    
               -0.00255714799277484   0.00281806942075491       0.275007903575897    0.0769068002700806    -0.00109773932490498   0.00493343407288194       0.366047203540802    0.0226536113768816    
               
130.00000000       0.372026741504669     0.037737000733614     -0.0002298188774148   0.00525562232360244       0.283549129962921     0.100585371255875    -0.00214302120730281   0.00320126488804817    
               -0.000262671150267124   0.00530447065830231       0.348960608243942  -0.00733322417363524    -0.00140058144461364   0.00327220116741955       0.292038232088089     0.055508516728878    
                  0.283990114927292     0.100822977721691     -0.0013969240244478   0.00325654470361769       0.337959796190262    0.0238994415849447    -0.000469734484795481   0.00542210740968585    
               -0.00208966224454343   0.00313048670068383       0.292264223098755    0.0555474497377872    -0.000420256896177307   0.00541896652430296       0.380625784397125  -0.00285642012022436    
               
140.00000000       0.385664075613022     0.016173517331481    0.000514970859512687    0.0055649196729064       0.300430297851563    0.0836468935012817    -0.00156462134327739   0.00350024155341089    
               0.000538874184712768   0.00557505106553435       0.358429998159409   -0.0324179232120514    -0.000916607968974859   0.00348236807622015       0.306056618690491    0.0324240997433662    
                  0.300779312849045     0.083654522895813    -0.000929080822970718   0.00348100555129349       0.349403411149979   0.00382342701777816    0.000275812315521762   0.00579740712419152    
               -0.00161335896700621   0.00346825132146478       0.306284248828888    0.0323477908968925    0.000325522618368268   0.00577040947973728       0.391727179288864   -0.0300055611878634    
               
150.00000000       0.396669268608093  -0.00658594956621528     0.00136326742358506    0.0057829967699945        0.31501442193985    0.0652793049812317    -0.00103930360637605   0.00367806642316282    
                0.00131567846983671   0.00579079100862145       0.364536881446838   -0.0583118498325348    -0.000400421587983146   0.00363327329978347       0.317048788070679   0.00811622012406588    
                  0.315304219722748     0.065278947353363    -0.000391278328606859   0.00361445033922791       0.358424842357636   -0.0173047408461571     0.00113832193892449   0.00604179641231894    
                -0.0010902282083407    0.0036187747027725        0.31723353266716   0.00807332340627909     0.00110597757156938   0.00603108014911413        0.39928263425827   -0.0582645051181316    
               
160.00000000       0.405218034982681   -0.0301990322768688     0.00220064306631684   0.00583736784756184       0.327248781919479    0.0457680821418762    -0.000602742482442409   0.00376038090325892    
                0.00217824568971992   0.00585280917584896       0.367881774902344    -0.084802657365799    0.000104390499473084   0.00363482162356377       0.325064897537231   -0.0170160457491875    
                  0.327679604291916    0.0459166690707207    0.000108479187474586   0.00371987256221473       0.364953488111496   -0.0391282364726067     0.00194685277529061   0.00617019692435861    
               -0.000532171747181565   0.00381440855562687       0.325231373310089   -0.0170433185994625     0.00191014586016536   0.00615700567141175        0.40391930937767   -0.0872839093208313    
               
170.00000000       0.411225706338882   -0.0543579496443272     0.00298620061948895   0.00584420561790466       0.337243586778641    0.0257785283029079    -2.62203138845507e-005   0.00378454802557826    
                0.00302725378423929   0.00584718398749828       0.368385344743729    -0.111414976418018    0.000638431520201266   0.00366204371675849       0.330142617225647   -0.0426825508475304    
                  0.337769776582718    0.0257932133972645    0.000625548593234271   0.00372189888730645       0.369259595870972   -0.0613752007484436     0.00276428880169988   0.00621109642088413    
               -2.33587161346804e-005   0.00384349026717246       0.330485135316849   -0.0427392795681953     0.00278313388116658   0.00617808103561401       0.405267506837845    -0.116778694093227    
               
180.00000000       0.415052682161331   -0.0786313787102699     0.00376345869153738   0.00556791387498379       0.345386415719986   0.00517921661958098    0.000516114057973027   0.00368206691928208    
                0.00383440428413451   0.00568790454417467       0.365929275751114    -0.137982100248337      0.0011722210329026   0.00355848064646125         0.3326336145401   -0.0684596821665764    
                  0.345691919326782   0.00521142454817891     0.00110032048542053   0.00367273087613285       0.371422082185745   -0.0836939737200737     0.00360053731128573   0.00606979383155704    
               0.000524184841196984   0.00370935793034732       0.332807451486588    -0.068410649895668     0.00361824384890497   0.00607934175059199       0.403815925121307    -0.146110773086548    
               
190.00000000       0.416582971811295    -0.102834016084671     0.00458509149029851   0.00544762192294002       0.351317375898361   -0.0154626034200192    0.000891409115865827   0.00363275175914168    
                0.00461631640791893   0.00548259215429425       0.360871583223343    -0.164038136601448     0.00158209854271263   0.00349765527062118       0.332314789295197   -0.0941280424594879    
                  0.351624876260757   -0.0154727008193731     0.00150012946687639   0.00357232452370226       0.371559679508209     -0.10577454417944     0.00444375863298774   0.00591680407524109    
               0.000928073539398611   0.00360513897612691       0.332455545663834    -0.094384640455246      0.0043708304874599   0.00595289701595902       0.399753570556641    -0.175014793872833    
               
200.00000000       0.416113704442978    -0.126835778355598     0.00529052503407002   0.00510990992188454       0.355470538139343   -0.0362968221306801     0.00124225532636046   0.00344060431234539    
                0.00521731376647949   0.00508369412273169       0.353474497795105     -0.18938447535038     0.00198549102060497   0.00334316724911332       0.329557418823242    -0.119633659720421    
                  0.355959534645081   -0.0364343002438545     0.00194234272930771   0.00342985684983432       0.369794398546219    -0.127648591995239     0.00509501853957772   0.00574718974530697    
                0.00127374846488237   0.00338002946227789       0.329580366611481    -0.119698226451874     0.00507799349725246   0.00569272227585316       0.392683088779449    -0.203490138053894    
               
210.00000000        0.41357946395874    -0.150465071201324     0.00616647722199559   0.00480655208230019       0.357988834381104   -0.0568721517920494     0.00190482893958688   0.00333132524974644    
                0.00619126949459314    0.0048557254485786       0.343872517347336     -0.21391473710537     0.00251375767402351   0.00322434911504388       0.324662357568741    -0.144407704472542    
                  0.358481794595718   -0.0569340996444225     0.00253751128911972   0.00327241490595043       0.366376578807831    -0.149035349488258     0.00592805771157146   0.00548712909221649    
                0.00188735849224031   0.00350102270022035       0.324877560138702    -0.144494861364365     0.00597457308322191    0.0054394849576056         0.3831787109375    -0.230884373188019    
               
220.00000000        0.40934544801712     -0.17361381649971     0.00682142935693264   0.00422802940011024       0.358978986740112   -0.0774028673768044     0.00229385076090693   0.00298204040154815    
                0.00689312862232327   0.00429941434413195       0.332073897123337     -0.23778872191906     0.00285801291465759   0.00289329490624368       0.317413717508316    -0.168731421232224    
                  0.359436184167862   -0.0775990784168243      0.0029264239128679   0.00290211290121078       0.361125916242599    -0.169944733381271     0.00673765456303954   0.00502059748396277    
                0.00225954013876617     0.002998256823048       0.317654639482498    -0.168938785791397     0.00673920568078756   0.00497695198282599       0.371233105659485    -0.257580637931824    
               
230.00000000       0.403393119573593    -0.196488052606583     0.00748626794666052   0.00361903826706111       0.358430206775665   -0.0977460965514183     0.00265543418936431   0.00260838237591088    
                0.00747264083474875   0.00361671671271324       0.318229138851166    -0.260473668575287     0.00327886175364256   0.00253227539360523       0.308106690645218    -0.192332729697227    
                  0.358914911746979   -0.0980320423841476     0.00318901264108717   0.00249795778654516       0.354600489139557    -0.190542504191399     0.00740465195849538   0.00450985180214047    
