! S11 = S11
! S12 = S12
! S13 = S13
! S14 = S14
! S21 = S21
! S22 = S22
! S23 = S23
! S24 = S24
! S31 = S31
! S32 = S32
! S33 = S33
! S34 = S34
! S41 = S41
! S42 = S42
! S43 = S43
! S44 = S44
!
! FILE: E:\Projects\06_2015\060415_VNA_EOS_MUX_EVAL\SI-489-2_EOS_MUX_EVAL_A0_B0_SEL=0.s4p
!$DUT_CFG_DESC: Default 4-Port Configuration
!$NUMBER_PORTS: 4
!$DIFF_PORT_MAP: 1|2P|2|2P|0|UC|0|UC|
!$PORT_MAP: 1|1|<<<<<<|2|2|>>>>>>|3|3|<<<<<<|4|4|>>>>>>|
!
# MHz S RI R 50.00
!
! FREQ                  		S11                         			   S12                         			   S13                         			   S14
!                       		S21                         			   S22                         			   S23                         			   S24
!                       		S31                         			   S32                         			   S33                         			   S34
!                       		S41                         			   S42                         			   S43                         			   S44
!                       		
!                  	REAL     		    IMAG               	      REAL     		    IMAG               	      REAL     		    IMAG               	      REAL     		    IMAG               	      
10.00000000       0.104518815875053     0.027169207111001       0.891419231891632   -0.0803248360753059      0.0047072870656848    0.0343882851302624    -0.00428491830825806   -0.0252741556614637    
                  0.890971720218658   -0.0809316039085388       0.103089511394501    0.0254578366875649    -0.00385288521647453   -0.0253889188170433     0.00485027488321066    0.0341955460608006    
                0.00479719880968332      0.03414636105299    -0.00383559474721551   -0.0249807257205248       0.100399620831013     0.022854408249259       0.898443102836609    -0.079070620238781    
               -0.00393818784505129   -0.0252002477645874     0.00512258801609278    0.0340050123631954        0.89581686258316   -0.0797850489616394      0.0985660254955292    0.0227004624903202    
               
20.00000000       0.115965247154236    0.0551390685141087       0.872997581958771    -0.162176683545113      0.0164502579718828    0.0661655738949776     -0.0147828999906778   -0.0478217490017414    
                  0.873224318027496    -0.162440299987793       0.117523856461048    0.0543557666242123     -0.0147963631898165   -0.0478323623538017      0.0179131738841534     0.065240740776062    
                 0.0164622608572245    0.0662638917565346     -0.0146798370406032    -0.047668170183897       0.108425304293633    0.0475397892296314        0.88009375333786    -0.160465568304062    
                -0.0147839337587357   -0.0475614033639431      0.0180729925632477    0.0647894814610481       0.878816723823547    -0.160764694213867       0.109929129481316    0.0479443818330765    
               
30.00000000       0.133230745792389    0.0791002437472343       0.845486223697662    -0.237143352627754       0.034805666655302    0.0940585136413574     -0.0310585387051106   -0.0664648562669754    
                  0.845679223537445    -0.237433701753616       0.136928409337997    0.0766023918986321      -0.031127305701375   -0.0663782060146332      0.0376391597092152    0.0917336493730545    
                 0.0349433906376362    0.0938729792833328     -0.0309745781123638   -0.0660692229866982       0.123395510017872    0.0694123357534409       0.853673875331879    -0.234664618968964    
                  -0.03091093711555   -0.0660682395100594      0.0374283641576767     0.091322585940361       0.852343738079071    -0.234924644231796       0.127553641796112     0.067849837243557    
               
40.00000000       0.156148463487625     0.098254106938839       0.810506165027618    -0.305440187454224      0.0578327476978302      0.11661022901535     -0.0514045357704163   -0.0801565498113632    
                  0.810773015022278    -0.305787682533264       0.160257577896118    0.0933296531438828     -0.0511614568531513   -0.0801232755184174      0.0623873695731163     0.112599432468414    
                 0.0578821673989296     0.116337634623051     -0.0511433966457844    -0.079771526157856       0.144609063863754    0.0858134478330612       0.819766700267792     -0.30275821685791    
                -0.0512656532227993   -0.0798574835062027      0.0621347054839134      0.11211509257555       0.818722367286682    -0.302333056926727       0.149022877216339    0.0827486962080002    
               
50.00000000       0.181862950325012      0.11059894412756       0.769332706928253    -0.366555422544479      0.0839788094162941     0.133740246295929     -0.0742566660046577   -0.0883713141083717    
                  0.769426465034485    -0.366980344057083       0.187962040305138     0.104218289256096     -0.0741651281714439   -0.0883477702736855      0.0905782207846642     0.127281576395035    
                 0.0838575139641762     0.133389353752136     -0.0740154013037682   -0.0880580246448517        0.16741456091404    0.0962312519550323       0.780170798301697     -0.36376228928566    
                -0.0740830600261688   -0.0881336107850075      0.0902448371052742     0.126630648970604       0.779366612434387    -0.363659203052521       0.173844829201698    0.0917565673589706    
               
60.00000000       0.208922848105431     0.117909818887711       0.723952353000641    -0.420482307672501       0.112290352582932     0.145325347781181     -0.0983091741800308   -0.0913219824433327    
                  0.724130809307098    -0.420775353908539       0.217603877186775     0.107796773314476     -0.0981130227446556   -0.0912623107433319       0.120843663811684     0.135485395789146    
                  0.112336188554764     0.144779220223427     -0.0978892222046852   -0.0906029641628265       0.191671386361122      0.10166172683239       0.736151456832886    -0.418599098920822    
                -0.0982452630996704   -0.0907815545797348       0.120356492698193     0.134795054793358       0.735396683216095    -0.418264716863632       0.200559973716736    0.0948557034134865    
               
70.00000000       0.236788019537926     0.119400508701801       0.675926566123962    -0.466814279556274       0.141439393162727     0.151265218853951      -0.122403606772423   -0.0887332633137703    
                  0.675936162471771     -0.46724009513855       0.247185230255127     0.105260401964188      -0.122107669711113   -0.0886136367917061        0.15114089846611     0.137511864304543    
                  0.141173541545868     0.150800034403801      -0.121879413723946   -0.0882500857114792       0.216590374708176     0.102757692337036       0.689452052116394    -0.466019213199615    
                 -0.122048549354076   -0.0882869884371758       0.150662571191788     0.136879816651344       0.688576936721802    -0.465597778558731         0.2268146276474    0.0922340825200081    
               
80.00000000       0.264485895633698     0.115737967193127       0.626166760921478    -0.506752669811249       0.170145899057388     0.152007132768631      -0.145317643880844    -0.081389382481575    
                   0.62624055147171    -0.507099688053131       0.275329947471619    0.0974530056118965      -0.144958928227425   -0.0812322869896889        0.18097323179245     0.133981749415398    
                  0.169787406921387      0.15139602124691      -0.144583389163017   -0.0809409767389297       0.241288587450981    0.0985774844884872       0.641002535820007    -0.507031619548798    
                 -0.144839718937874   -0.0809982717037201       0.180306196212769     0.133447140455246       0.640259206295013    -0.506338894367218       0.252833604812622     0.083711177110672    
               
90.00000000       0.290454715490341     0.107323296368122       0.576117753982544    -0.540556192398071        0.19784739613533     0.148427218198776      -0.166256695985794   -0.0698363482952118    
                  0.576075553894043    -0.540806293487549       0.302520275115967    0.0842883661389351      -0.165842533111572   -0.0698166564106941       0.209257200360298     0.125418856739998    
                  0.197307333350182     0.148009613156319      -0.165504291653633   -0.0696337148547173       0.264166504144669     0.089992918074131       0.592043340206146     -0.54213160276413    
                 -0.165655165910721   -0.0695966929197311       0.208546385169029     0.124854117631912       0.590903699398041    -0.541878163814545       0.276595592498779    0.0712707191705704    
               
100.00000000       0.314635932445526      0.09515530616045       0.525928497314453    -0.568377614021301       0.223873421549797     0.141007214784622       -0.18477201461792   -0.0549638830125332    
                  0.525628745555878     -0.56892204284668       0.326882690191269    0.0665807351469994      -0.184278041124344   -0.0549821928143501       0.235324770212173     0.112362585961819    
                  0.223407849669456      0.14039121568203      -0.183802604675293   -0.0548189468681812       0.285333663225174    0.0785210803151131       0.542550981044769    -0.572034001350403    
                 -0.184158310294151   -0.0546330362558365       0.234408408403397     0.111924819648266        0.54163932800293    -0.571664333343506       0.298029273748398    0.0548635199666023    
               
110.00000000         0.3365578353405     0.079972617328167       0.476189881563187    -0.591570734977722       0.247955679893494     0.130018204450607      -0.200297579169273   -0.0371051169931889    
                  0.475842028856277    -0.592014610767365       0.348053067922592    0.0451740473508835      -0.199950039386749   -0.0373481847345829       0.258445113897324    0.0959163978695869    
                  0.247290134429932     0.129367589950562      -0.199326559901237   -0.0371172353625298       0.304424077272415      0.06413684040308       0.493411302566528    -0.597079157829285    
                 -0.199613273143768   -0.0369392968714237       0.257411032915115    0.0954831689596176       0.492356598377228    -0.596731781959534       0.316756993532181    0.0350163802504539    
               
120.00000000       0.355803042650223    0.0616665817797184       0.427325576543808     -0.61040997505188       0.269457548856735     0.116275042295456      -0.212693065404892   -0.0173319689929485    
                  0.426956206560135     -0.61081850528717       0.365742474794388    0.0212736241519451      -0.212361663579941   -0.0174446776509285         0.2787144780159    0.0765673294663429    
                  0.268704146146774     0.115731976926327      -0.211808249354362   -0.0173620488494635       0.321193546056747    0.0469402931630611       0.444873452186584    -0.617650032043457    
                 -0.212027743458748    -0.017220439389348       0.277669847011566    0.0760946124792099       0.443730920553207     -0.61735200881958       0.332288712263107    0.0128560066223145    
               
130.00000000       0.372243613004684    0.0414828471839428       0.379602015018463    -0.625240325927734       0.288632273674011     0.100712560117245      -0.222153678536415    0.0038126960862428    
                  0.379218816757202    -0.625715374946594       0.380341440439224  -0.00495365634560585      -0.221636831760406   0.00361509853973985       0.295904815196991    0.0547516644001007    
                  0.287976533174515      0.10023295134306      -0.220990404486656   0.00360455759800971       0.335057258605957    0.0280186235904694       0.397171288728714    -0.634683907032013    
                 -0.221441149711609   0.00384336966089904       0.294834673404694    0.0543854050338268       0.396086931228638    -0.634407997131348       0.344574421644211   -0.0111237317323685    
               
140.00000000        0.38610914349556    0.0198684576898813       0.333100020885468    -0.636794567108154       0.305574864149094     0.083245761692524      -0.228487983345985    0.0259942281991243    
                  0.332571059465408    -0.637236177921295       0.391546100378037   -0.0330811552703381      -0.227889120578766    0.0256770048290491       0.309729635715485    0.0311996880918741    
                  0.304789274930954    0.0826896354556084      -0.227266475558281    0.0256666373461485        0.34650644659996   0.00801004841923714       0.350270867347717    -0.648402571678162    
                 -0.227700099349022    0.0260264072567225       0.308690696954727    0.0309770572930574       0.349299639463425    -0.648100018501282       0.353797197341919   -0.0367329902946949    
               
150.00000000       0.397381246089935  -0.00320349307730794       0.287772655487061    -0.645354747772217       0.320008218288422    0.0644128173589706      -0.231588557362556    0.0486432947218418    
                  0.287205278873444    -0.645804226398468       0.398953557014465   -0.0620752237737179      -0.231145977973938    0.0481392778456211       0.320539176464081   0.00658943597227335    
                  0.319140672683716    0.0638876482844353      -0.230493113398552    0.0481042787432671       0.355622380971909   -0.0130228903144598       0.304330229759216    -0.659027934074402    
                 -0.230762481689453     0.048616711050272        0.31932744383812   0.00650911312550306       0.303177386522293    -0.658620119094849       0.359666436910629   -0.0634222030639648    
               
160.00000000       0.405914753675461   -0.0269156955182552       0.243678271770477    -0.651280164718628       0.332031041383743    0.0447655394673347      -0.232003703713417    0.0711566135287285    
                  0.243016049265862    -0.651649236679077       0.403279691934586   -0.0915449112653732      -0.231558740139008    0.0707041621208191       0.328343689441681   -0.0188624802976847    
                  0.331169128417969    0.0443371124565601      -0.230915099382401    0.0705105140805244       0.362440586090088   -0.0346776470541954       0.259309083223343    -0.666822850704193    
                 -0.231229826807976    0.0709862485527992       0.327147960662842   -0.0189711395651102       0.258227616548538    -0.666311383247375         0.3624267578125   -0.0903958678245544    
               
170.00000000        0.41200053691864   -0.0508420020341873       0.200842395424843    -0.654516518115997       0.342023938894272    0.0246361084282398      -0.229812562465668    0.0933651030063629    
                  0.200057700276375    -0.654915571212769       0.404492497444153    -0.121302783489227      -0.229311659932137     0.092721551656723       0.333203494548798   -0.0447364561259747    
                  0.341124802827835    0.0240896102041006      -0.228722512722015    0.0926045775413513       0.366687148809433   -0.0565496347844601       0.215301379561424    -0.672370135784149    
                  -0.22906294465065    0.0932329744100571       0.332036644220352   -0.0446582101285458       0.214305475354195    -0.671817719936371       0.362359195947647    -0.117574289441109    
               
180.00000000       0.415917962789536   -0.0750493332743645       0.159209758043289    -0.656088769435883       0.349964797496796   0.00379781750962138      -0.225212380290031      0.11511704325676    
                  0.158426210284233    -0.656164407730103       0.402447938919067    -0.151159510016441      -0.224717512726784     0.114346601068974       0.335234403610229   -0.0707534998655319    
                  0.348879516124725   0.00349361728876829      -0.224183425307274     0.114042155444622       0.368737280368805   -0.0784288346767426       0.172315716743469    -0.675323665142059    
                 -0.224361672997475     0.114923588931561       0.334061145782471   -0.0705059096217155       0.170935407280922    -0.674822807312012       0.359623074531555     -0.14434090256691    
               
190.00000000       0.417383551597595   -0.0992497950792313        0.11850680410862     -0.65531587600708       0.355806797742844   -0.0171371717005968      -0.218250930309296     0.136026486754417    
                  0.117586955428123    -0.655424833297729       0.397382915019989    -0.180533573031425      -0.217769205570221     0.135011315345764       0.334781259298325   -0.0965426936745644    
                  0.354704737663269   -0.0172700136899948      -0.217300519347191     0.134770587086678       0.369012743234634    -0.100291348993778       0.130106970667839    -0.676301836967468    
                 -0.217552423477173     0.135523989796638       0.333549112081528    -0.096327006816864       0.128785118460655    -0.675587952136993       0.354442030191422    -0.170811250805855    
               
200.00000000       0.416706681251526    -0.123344838619232      0.0786036849021912    -0.652492880821228       0.359783321619034   -0.0380008108913898      -0.209410861134529     0.155664414167404    
                  0.077632836997509    -0.652697324752808       0.389756590127945    -0.209378018975258      -0.208848476409912     0.154786378145218       0.331735640764236    -0.122095063328743    
                  0.358789473772049   -0.0383318811655045       -0.20844304561615     0.154428452253342       0.367118239402771    -0.121968321502209       0.088620588183403    -0.675371408462524    
                 -0.208639338612556      0.15514101088047       0.330515623092651    -0.121681898832321      0.0875207036733627    -0.674250245094299       0.346090257167816    -0.196575477719307    
               
210.00000000       0.414487183094025     -0.14679779112339      0.0403712876141071    -0.647860169410706       0.362283527851105   -0.0586942806839943       -0.19843602180481     0.174512401223183    
                 0.0393251702189446    -0.647870779037476       0.379836976528168    -0.237298995256424      -0.198087230324745      0.17328317463398       0.326408714056015    -0.147020578384399    
                  0.361273139715195   -0.0589835494756699      -0.197663024067879      0.17291633784771       0.363850921392441    -0.143079444766045      0.0484011843800545     -0.67206346988678    
                 -0.197833880782127     0.174084514379501       0.325251519680023    -0.146595999598503       0.047238428145647    -0.671252191066742        0.33580955862999    -0.221221834421158    
               
220.00000000       0.410466939210892    -0.170150935649872     0.00294613023288548    -0.641705632209778       0.362987369298935   -0.0794770568609238      -0.185908764600754     0.191882759332657    
                0.00200554192997515    -0.641815006732941        0.36742377281189    -0.264396160840988      -0.185713663697243     0.190413191914558       0.318889439105988    -0.171218574047089    
                  0.361801445484161   -0.0797990188002586      -0.185288861393929     0.189952448010445       0.358942717313766     -0.16384194791317     0.00889599975198507    -0.667067229747772    
                 -0.185309648513794     0.191474094986916       0.317602097988129     -0.17072057723999     0.00775957340374589    -0.666198432445526       0.323613792657852    -0.245213404297829    
               
230.00000000        0.40471363067627    -0.192901879549026     -0.0336358062922955    -0.634035587310791       0.362300157546997   -0.0998408868908882      -0.172009989619255     0.207828536629677    
                -0.0347052440047264    -0.633919715881348       0.352789342403412     -0.29027059674263      -0.171929463744164     0.206302538514137       0.309195339679718    -0.194788128137589    
                   0.36122789978981    -0.100143723189831      -0.171675622463226      0.20573765039444       0.352613657712936    -0.183994323015213     -0.0298766102641821     -0.66049325466156    
                 -0.171400010585785     0.207200020551682       0.308125853538513    -0.194129168987274     -0.0309838652610779    -0.659345746040344       0.309134662151337    -0.268148005008698    
               
