! S11 = S11
! S12 = S12
! S13 = S13
! S14 = S14
! S21 = S21
! S22 = S22
! S23 = S23
! S24 = S24
! S31 = S31
! S32 = S32
! S33 = S33
! S34 = S34
! S41 = S41
! S42 = S42
! S43 = S43
! S44 = S44
!
! FILE: E:\Projects\06_2015\060415_VNA_EOS_MUX_EVAL\SI-489-2_EOS_MUX_EVAL_A0_B0_SEL=1.s4p
!$DUT_CFG_DESC: Default 4-Port Configuration
!$NUMBER_PORTS: 4
!$DIFF_PORT_MAP: 1|2P|2|2P|0|UC|0|UC|
!$PORT_MAP: 1|1|<<<<<<|2|2|>>>>>>|3|3|<<<<<<|4|4|>>>>>>|
!
# MHz S RI R 50.00
!
! FREQ                  		S11                         			   S12                         			   S13                         			   S14
!                       		S21                         			   S22                         			   S23                         			   S24
!                       		S31                         			   S32                         			   S33                         			   S34
!                       		S41                         			   S42                         			   S43                         			   S44
!                       		
!                  	REAL     		    IMAG               	      REAL     		    IMAG               	      REAL     		    IMAG               	      REAL     		    IMAG               	      
10.00000000       0.110949605703354    0.0267100110650063    -0.000219736932194792  -0.000387108011636883     0.00473544746637344    0.0337812416255474    -0.000232053207582794  -0.000912824354600161    
               0.000147972605191171  -0.000490744540002197       0.103864230215549    0.0224830899387598    -0.000206594195333309  -0.000393149093724787     0.00479796808212996    0.0338002182543278    
                0.00475359195843339    0.0335800759494305    -1.87198093044572e-005  -0.00075534067582339       0.106224112212658    0.0231938473880291    -0.000122368088341318  -0.000324243679642677    
               -0.000163420205353759  -0.000388827553251758     0.00445751193910837    0.0341016203165054    -0.000212228609598242  -0.000532088568434119       0.109274633228779    0.0255948044359684    
               
20.00000000       0.122409321367741    0.0537163726985455    -0.000665476603899151  -0.000815669365692884      0.0162453632801771    0.0651646181941032    -0.000589093542657793  -0.00101230316795409    
               -0.00058719317894429  -0.000676408817525953       0.115311935544014    0.0472028255462646    -0.000639030185993761  -0.000879291910678148      0.0177403371781111    0.0646483600139618    
                 0.0159807242453098    0.0648394078016281    -0.000573653844185174  -0.00087564525892958       0.116107203066349    0.0469036661088467    -0.000780498143285513  -0.000781034119427204    
               -0.000448855484137312  -0.00101835187524557      0.0175570957362652    0.0643986091017723    -0.000880911597050726  -0.000851873017381877        0.12118823826313     0.052223764359951    
               
30.00000000       0.139274775981903    0.0760118290781975    -0.00116914825048298  -0.000489893951453269      0.0339490100741386    0.0926571488380432    -0.00130691600497812  -0.00125955254770815    
               -0.00114309915807098  -0.000625060813035816       0.132644325494766     0.067338801920414    -0.000992683926597238  -0.000956056930590421      0.0371062755584717    0.0908725783228874    
                 0.0338677875697613     0.092345803976059    -0.000999902375042439  -0.000916161865461618       0.131320849061012    0.0667034387588501    -0.00115952792111784  -0.000520031258929521    
               -0.00139388721436262   -0.0012060928856954      0.0371190011501312    0.0905872881412506    -0.00117097841575742  -0.000619876431301236       0.140048563480377    0.0745188817381859    
               
40.00000000       0.160572201013565    0.0940223932266235    -0.00170459249056876  -0.000416800961829722      0.0563141591846943     0.115163251757622     -0.0018346537835896  -0.00102742773015052    
               -0.00176238431595266  -0.000446659396402538       0.154062658548355    0.0817660987377167    -0.00157112022861838  -0.000876727455761284      0.0616504326462746     0.111718729138374    
                 0.0561723187565804     0.114898733794689    -0.00158123834989965  -0.000893066928256303       0.150508403778076     0.082050085067749    -0.00168644334189594  -0.000367237458704039    
                -0.0018060551956296  -0.00115946645382792      0.0613549686968327     0.111109204590321    -0.00177284236997366  -0.000270472606644034       0.163593634963036    0.0910826772451401    
               
50.00000000       0.185161337256432     0.106393329799175    -0.00209782319143415  2.26844822464045e-005      0.0821216404438019     0.132429361343384    -0.00231915153563023  -0.000844945316202939    
               -0.00215769419446588  5.46097835467663e-005       0.178642496466637    0.0906256511807442    -0.00197413749992847  -0.000559443142265081      0.0894805565476418     0.126206412911415    
                 0.0819431394338608     0.132145315408707    -0.00203550164587796  -0.000713717832695693       0.172528803348541    0.0925198271870613    -0.00220126751810312  3.48395769833587e-005    
               -0.00237846374511719  -0.000946290791034698      0.0891663581132889     0.125776946544647     -0.0020684078335762  2.84707639366388e-005        0.19075383245945     0.101194992661476    
               
60.00000000       0.211667940020561     0.113327965140343    -0.00255444645881653  0.000594188168179244       0.109963104128838     0.144160911440849    -0.00266863685101271  -0.000420810654759407    
               -0.00251460215076804  0.000558872357942164       0.204877942800522    0.0933116003870964    -0.00242526340298355  -0.000153092012624256       0.119336806237698     0.134547993540764    
                  0.109725415706635     0.143715187907219    -0.00242981314659119  -0.000114366368507035       0.196296870708466    0.0976890549063683    -0.00244051124900579  0.000683663587551564    
               -0.00286707864142954  -0.000416150287492201        0.11899271607399     0.133983269333839    -0.00243005296215415  0.000737399386707693       0.219528630375862     0.104636020958424    
               
70.00000000       0.238533273339272     0.114531494677067    -0.00268758740276098   0.00116292247548699       0.138579040765762     0.150513738393784    -0.00309742894023657  4.86382887174841e-005    
               -0.00263270689174533   0.00123945553787053       0.231136709451675    0.0906411483883858    -0.00268862117081881  0.000258886109804735       0.149631693959236     0.136682644486427    
                  0.138193264603615     0.149813860654831    -0.00262968335300684  0.000192135295947082       0.220408067107201    0.0981881767511368    -0.00267322966828942   0.00152855878695846    
               -0.00292782695032656  3.04169043374714e-005       0.149049088358879     0.136036694049835    -0.00272796885110438   0.00119482423178852       0.248463004827499     0.102401487529278    
               
80.00000000       0.265427619218826      0.11121341586113    -0.00258857780136168   0.00210643955506384       0.167172238230705     0.151726424694061    -0.00325179938226938  0.000619943079072982    
               -0.00255430722609162   0.00200979877263308        0.25665470957756    0.0828532874584198    -0.00270216818898916  0.000767656252719462       0.179176837205887     0.133464008569717    
                  0.166671544313431     0.151304975152016    -0.00261382129974663  0.000795201922301203       0.244094043970108    0.0939337015151978    -0.00267859268933535    0.0021158407907933    
               -0.00323223508894444  0.000696816656272858       0.178536862134933     0.132763311266899    -0.00264068669639528   0.00213388074189425       0.277147740125656    0.0937500447034836    
               
90.00000000       0.290970832109451     0.103259891271591    -0.00241636577993631   0.00282172649167478       0.194605693221092     0.148591294884682    -0.00322438008151948   0.00125058647245169    
               -0.00245068408548832   0.00286885816603899       0.280616194009781    0.0701418742537498    -0.00260490644723177   0.00136703450698406       0.207093954086304     0.124985285103321    
                  0.193953350186348     0.148212239146233    -0.00262875249609351   0.00140913261566311       0.266675770282745    0.0858600363135338    -0.00241669407114387   0.00301100686192513    
               -0.00333829200826585   0.00131996278651059       0.206496044993401     0.124384872615337    -0.00250208214856684   0.00302112870849669       0.303457498550415     0.080636627972126    
               
100.00000000       0.314699083566666    0.0915154591202736    -0.00207524397410452   0.00361393857747316       0.220542579889297     0.141519144177437    -0.00307789840735495    0.0018339742673561    
               -0.00206541060470045   0.00357805541716516       0.301826626062393    0.0537960715591908    -0.00246962648816407    0.0019650615286082       0.233022376894951     0.112301908433437    
                  0.219885930418968     0.141096189618111    -0.00238477066159248   0.00199482892639935       0.287625133991241    0.0742104798555374    -0.00216126046143472   0.00371275679208338    
               -0.00295643112622201   0.00189516600221395       0.232211172580719     0.111752040684223     -0.0021902322769165   0.00362888304516673       0.327238917350769    0.0629098787903786    
               
110.00000000       0.336057662963867    0.0763996839523315    -0.00148147228173912    0.0042049796320498       0.244591817259789     0.131118342280388    -0.00276144430972636   0.00234751449897885    
               -0.00162511272355914   0.00424630334600806       0.320406198501587    0.0340924263000488    -0.00212908373214304   0.00243014772422612        0.25622633099556    0.0959684327244759    
                   0.24382296204567     0.130770266056061    -0.00215356564149261   0.00243440107442439       0.306048274040222    0.0598451532423496    -0.00169258576352149   0.00432975683361292    
               -0.00270460150204599   0.00239768368192017       0.255225777626038    0.0953004434704781    -0.00162355252541602   0.00432709138840437       0.348538666963577    0.0417876504361629    
               
120.00000000       0.355023741722107    0.0587346777319908    -0.000937552540563047   0.00475916266441345       0.266388863325119     0.117928504943848    -0.00234105554409325   0.00282562780193985    
               -0.000943945895414799   0.00480202957987785       0.335800349712372    0.0119123365730047    -0.00179263530299068   0.00288013694807887       0.276428669691086    0.0768092051148415    
                  0.265643984079361     0.117711283266544    -0.00171969947405159   0.00282030878588557       0.322433769702911    0.0430099926888943    -0.000966376333963126   0.00489706080406904    
               -0.00237674033269286   0.00285387691110373       0.275400400161743    0.0763363614678383    -0.000919626210816205   0.00496292347088456       0.366122543811798    0.0178416185081005    
               
130.00000000       0.371285974979401    0.0389405786991119    -0.000214184503420256   0.00518046319484711       0.285815507173538     0.102495670318604    -0.00186844414565712   0.00315996748395264    
               -0.000231553844059817   0.00519752083346248       0.348119914531708   -0.0122134778648615    -0.00129594374448061   0.00319528416730464       0.293523013591766    0.0552508793771267    
                  0.284994184970856     0.102349616587162    -0.00129132182337344   0.00318318419158459       0.336089849472046    0.0244885329157114    -0.000306703703245148   0.00539451790973544    
               -0.00192881689872593   0.00310715101659298       0.292491734027863    0.0548909343779087    -0.000312452641082928   0.00543265184387565       0.380417555570602   -0.0082614766433835    
               
140.00000000       0.384906709194183    0.0175072234123945    0.000590173702221364    0.0054765734821558       0.302904576063156    0.0854622200131416    -0.00141086766961962    0.0034415025729686    
               0.000515718711540103   0.00551668927073479       0.357301384210587   -0.0379223190248013    -0.000835771963465959   0.00336978049017489       0.307488232851028    0.0320105999708176    
                  0.301980525255203    0.0852298811078072    -0.000853372854180634   0.00340977939777076       0.347331523895264   0.00449756998568773    0.000479066628031433   0.00576053420081735    
               -0.00144998577889055    0.0034706115256995       0.306393653154373    0.0317080393433571    0.000480545189930126   0.00575139746069908       0.391218066215515   -0.0360977649688721    
               
150.00000000       0.396027714014053  -0.00506741553544998     0.00134690012782812   0.00568095594644547       0.317680567502975    0.0670210719108582    -0.000898703758139163   0.00357733550481498    
                 0.0013292848598212   0.00568086886778474       0.363192349672318   -0.0643279477953911    -0.000364807434380054   0.00357016175985336       0.318489044904709   0.00752606336027384    
                  0.316730409860611    0.0669256001710892    -0.000312513817334548   0.00364415533840656        0.35627806186676   -0.0163796376436949     0.00127293122932315   0.00593784591183066    
               -0.000931000744458288   0.00360678951255977       0.317114144563675   0.00735969049856067     0.00127147510647774   0.00597481150180101       0.398578137159348   -0.0651248544454575    
               
160.00000000       0.404665946960449   -0.0284367427229881     0.00217456091195345   0.00574344489723444       0.330118924379349    0.0475743040442467    -0.00035458558704704   0.00369568238966167    
                0.00217028451152146   0.00576100312173367       0.366202265024185   -0.0912309214472771    0.000212315047974698   0.00365481828339398       0.326280772686005   -0.0177855473011732    
                  0.329194307327271    0.0475062802433968    0.000181692623300478   0.00370952044613659        0.36285874247551   -0.0377660058438778     0.00207988498732448   0.00606355676427484    
               -0.000418909650761634   0.00369268213398755       0.325000196695328   -0.0178433824330568     0.00204075244255364   0.00611369172111154       0.402791112661362   -0.0947850123047829    
               
170.00000000       0.410792261362076    -0.052071075886488     0.00299174012616277   0.00568633386865258       0.340332210063934    0.0274754241108894     0.00013169772864785    0.0036900311242789    
                0.00300214882008731   0.00572611344978213       0.366184890270233    -0.118163026869297    0.000665931846015155   0.00362941203638911       0.331206649541855   -0.0435075908899307    
                  0.339417725801468    0.0274452697485685     0.00069608842022717   0.00366947613656521       0.367045849561691   -0.0594856329262257     0.00287537928670645   0.00608723238110542    
               0.000153931832755916   0.00370202050544322       0.329965442419052   -0.0435128174722195     0.00292214774526656   0.00609723385423422       0.403811663389206    -0.124645121395588    
               
180.00000000          0.414530813694   -0.0761142075061798     0.00378407444804907   0.00549812708050013       0.348600685596466   0.00685305194929242    0.000650069152470678     0.003654032247141    
                0.00377376028336585   0.00567473052069545       0.363197892904282    -0.145065292716026      0.0011882953112945   0.00360058736987412       0.333412647247314   -0.0693453922867775    
                  0.347494125366211     0.007001883815974     0.00119409745093435   0.00356804835610092       0.369086474180222   -0.0812581405043602     0.00379640585742891   0.00604652240872383    
               0.000645716732833534   0.00365004898048937       0.332020580768585   -0.0693123042583466     0.00368081545457244    0.0060172094963491       0.401813149452209    -0.154304414987564    
               
190.00000000       0.416190385818481   -0.0999295264482498     0.00460027391090989   0.00527877034619451       0.354775935411453   -0.0140297673642635     0.00102732994128019   0.00345851457677782    
                0.00457932613790035   0.00528227211907506       0.357702493667603    -0.171549931168556     0.00158189388457686   0.00343631859868765       0.333045065402985   -0.0950930044054985    
                  0.353766977787018   -0.0137928863987327     0.00162811460904777   0.00336933671496809       0.369113385677338    -0.103028513491154     0.00445783650502563   0.00583899533376098    
                0.00112825608812273   0.00355319259688258       0.331657201051712   -0.0949907749891281     0.00444847904145718   0.00570849794894457       0.396971344947815    -0.183693885803223    
               
200.00000000       0.415834248065948    -0.123936675488949     0.00522205838933587   0.00501908594742417       0.359207808971405   -0.0349524691700935     0.00144690950401127   0.00327918911352754    
                0.00517073925584555   0.00502225803211331       0.349652349948883    -0.197308331727982     0.00197630235925317   0.00325960130430758       0.329981535673141    -0.120563052594662    
                   0.35828623175621   -0.0347805917263031     0.00197722669690847   0.00331386341713369       0.367370575666428    -0.124565973877907      0.0051676849834621   0.00558887515217066    
                0.00147451879456639   0.00336873414926231        0.32867419719696    -0.120129615068436     0.00517023494467139   0.00559597043320537       0.389324843883514    -0.212557211518288    
               
210.00000000        0.41351643204689    -0.147252723574638      0.0060636205598712   0.00467750243842602       0.361881405115128    -0.055793285369873     0.00207748310640454   0.00327135855332017    
                0.00606104172766209   0.00474658934399486       0.339606940746307    -0.222176373004913     0.00257781357504427   0.00321448221802711       0.324774235486984     -0.14535416662693    
                  0.361021369695663   -0.0554184094071388     0.00249954289756715   0.00310666183941066       0.363902598619461    -0.145610690116882     0.00603202730417252   0.00533466320484877    
                0.00187425885815173   0.00327911600470543       0.323507487773895     -0.14486925303936     0.00604794453829527   0.00528995832428336       0.379180163145065    -0.240399971604347    
               
220.00000000       0.409564822912216    -0.170363709330559     0.00676401657983661   0.00408632960170507       0.363028734922409   -0.0764108896255493     0.00231380993500352   0.00287002162076533    
                0.00675309076905251   0.00414100149646401        0.32734403014183    -0.246079221367836     0.00292555219493806   0.00280321529135108       0.317299604415894    -0.169537261128426    
                  0.362110644578934   -0.0761570483446121     0.00291339657269418    0.0027847234159708       0.359032928943634     -0.16608926653862     0.00677657313644886   0.00486894883215427    
                0.00232635205611587   0.00278463657014072       0.315923452377319    -0.169003427028656     0.00676886131986976   0.00480376509949565       0.366645753383636    -0.267477750778198    
               
230.00000000       0.403993457555771    -0.192881420254707     0.00734338257461786   0.00350248906761408       0.362529128789902   -0.0969749093055725     0.00264834403060377   0.00248131132684648    
                 0.0073222010396421   0.00349319074302912       0.313001155853271    -0.269002437591553     0.00322617380879819   0.00242865388281643        0.30769208073616    -0.192957699298859    
                  0.361666440963745   -0.0966815054416656     0.00328024430200458   0.00244592712260783       0.352789759635925    -0.186240822076797     0.00742507679387927   0.00427661975845695    
