!Keysight Technologies PLTS 2015, Build 20150320.1
!FILE: C:\Users\sitester\Documents\Keysight PLTS 2015\Data\PLTS1.dut
!$DUT_CFG_DESC: Default 4-Port Configuration
!$NUMBER_PORTS: 4
!$DIFF_PORT_MAP: 1|2P|2|2P|0|UC|0|UC|
!$PORT_MAP: 1|1|<<<<<<|2|2|>>>>>>|3|3|<<<<<<|4|4|>>>>>>|
!Date: Wednesday, February 03, 2016 10:38:00 AM
!S4P File: Measurements: <S11,S12,S13,S14>,
!<S21,S22,S23,S24>,
!<S31,S32,S33,S34>,
!<S41,S42,S43,S44>:
# MHz S  RI   R 50
10           -0.00138791871722788     0.000130908010760322     -9.86458690022118E-06    -6.07201181992423E-05    -1.97998670046218E-05    -1.67363341461169E-05    -2.07040266104741E-05    -4.40934491052758E-05   
             -4.39262003055774E-05    -7.81478593125939E-05    0.999456942081451        -0.000483821058878675    9.8851443908643E-05      4.64630602436955E-06     3.28817950503435E-05     5.29948238181532E-06    
             -0.000119035692478064    1.84327818715246E-05     1.90324117284035E-05     -2.63984998127853E-06    1.00002479553223         -0.00045766361290589     -7.46101432014257E-05    -4.82839095639065E-05   
             -8.18477346911095E-05    0.000103365018730983     7.36465226509608E-05     0.000122894722153433     -7.21554170013405E-05    -1.96626697288593E-05    1.00014305114746         -0.000301825493806973   
20           -0.00146666285581887     0.000250779208727181     -1.76896483026212E-05    2.60629785771016E-05     3.68527689715847E-05     1.96980799955782E-05     2.46932686422952E-05     2.09747886401601E-05    
             3.3629057725193E-05      1.982161666092E-05       0.999870479106903        -0.00122892239596695     -1.17683548523928E-05    -9.71033296082169E-06    1.86648885573959E-05     6.490576924989E-05      
             -7.69227335695177E-06    2.59381067735376E-05     4.5474836952053E-05      -5.50137656318839E-06    0.999831020832062        -0.00114276434760541     2.97534497804008E-05     -4.32516644650605E-05   
             -1.85706812771969E-05    1.52028560478357E-05     -2.58848581324855E-06    3.44505824614316E-05     -2.041383231699E-05      4.0612412703922E-05      1.00028669834137         -0.00104033504612744    
30           -0.00132379238493741     0.000494895735755563     1.14500426207087E-05     -7.92219543654937E-06    -2.55507293331902E-05    2.46843337663449E-05     -9.2308888270054E-05     1.90477221622132E-05    
             -9.39332494453993E-06    1.47229338836041E-05     1.00007593631744         -0.00143915275111794     1.22944520626334E-05     -1.83261199708795E-05    -6.46322441753E-05       4.19696016251692E-06    
             -2.2058971808292E-05     -1.88971371244406E-05    -1.39502017191262E-05    4.72272840852384E-05     0.999955177307129        -0.00138282508123666     -3.99953351006843E-05    2.59444095718209E-05    
             2.52796835411573E-05     -3.01008331007324E-05    5.99396007601172E-05     -4.7109537263168E-05     -3.37419151037466E-05    3.77481155737769E-05     0.999884068965912        -0.00136023689992726    
40           -0.00128274201415479     0.000575226615183055     -2.95330355584156E-05    -2.06557579076616E-05    -5.48415919183753E-05    -0.000104354927316308    -2.98737268167315E-05    2.7034566301154E-05     
             1.44715932037798E-05     -1.99879323190544E-05    1.00027239322662         -0.00208766874857247     3.72773101844359E-05     2.21926384256221E-05     5.35410690645222E-05     9.20194906939287E-06    
             -4.6758410462644E-05     -1.92527331819292E-05    1.62693340826081E-05     6.18423000560142E-05     1.00002181529999         -0.00213992432691157     -2.29476586355304E-06    8.83505417732522E-05    
             -1.63620916282525E-05    -6.23049272689968E-05    7.9822802945273E-06      3.14165008603595E-05     6.86874091115897E-06     -2.39588189288042E-05    0.999724566936493        -0.00210838462226093    
50           -0.00123603700194508     0.000783070165198296     -2.2229518435779E-05     4.8510712076677E-05      -7.19092349754646E-05    1.52333814185113E-06     3.51384333043825E-05     -2.18605546251638E-05   
             3.41330887749791E-05     5.82964894420002E-05     0.999687373638153        -0.00229438045062125     -8.17415348137729E-05    3.59722835128196E-05     -2.08873843803303E-05    8.57925624586642E-05    
             -4.85003329231404E-05    -1.97018252947601E-05    2.97705082630273E-05     5.36933766852599E-05     1.00005221366882         -0.00223608268424869     -3.30017769556434E-06    -5.19369132234715E-05   
             1.00251272669993E-05     -2.02471728698583E-05    -3.52815259248018E-05    -9.10978633328341E-06    -3.35581426043063E-05    -1.90279606613331E-05    0.999911308288574        -0.00253868266008794    
60           -0.00129130308050662     0.000804142910055816     -2.47156521027136E-07    -3.27957168337889E-05    9.93869107333012E-05     -8.0775615060702E-05     -4.53505672339816E-05    9.64856662903912E-05    
             1.4669293705083E-05      -7.06505961716175E-05    0.999865293502808        -0.00287991180084646     2.66877686954103E-05     -4.30371837865096E-05    -7.37053123884834E-05    1.70111816260032E-05    
             5.3799303714186E-05      1.31066799440305E-05     -3.98652809963096E-05    2.00897502509179E-05     0.999806106090546        -0.00283024040982127     7.78394169174135E-05     4.83762323710835E-06    
             -4.89201520395E-05       6.93447946105152E-05     2.42721353060915E-06     4.18951822211966E-05     -3.22001869790256E-05    8.56281913002022E-05     0.999893009662628        -0.00299595366232097    
70           -0.00114292814396322     0.00103070575278252      7.63935531722382E-05     1.4598742382077E-05      -3.64457127943751E-06    -5.85309453526861E-06    9.35012758418452E-06     -4.89633885081275E-06   
             1.34631336550228E-05     -4.60303272120655E-05    1.00005519390106         -0.00325275002978742     -2.27102987082617E-06    3.64448169420939E-05     1.91896997421281E-05     -7.72415587562136E-05   
             -6.14763557678089E-05    -5.65885602554772E-05    5.30015859112609E-05     -1.30587604871835E-05    0.999835431575775        -0.00322048109956086     -3.22856831189711E-05    8.43112138682045E-05    
             -1.92253901332151E-05    7.00371092534624E-05     -1.81604900717502E-05    -4.97835681017023E-05    -6.13557058386505E-05    3.68813598470297E-05     0.999980866909027        -0.00356284086592495    
80           -0.00120286864694208     0.0010451297275722       -8.32495516078779E-07    6.69179553369759E-06     2.87846523860935E-05     -3.34731994371396E-05    -2.36212054005591E-05    2.83050158031983E-05    
             -4.95953609060962E-05    -7.4614908953663E-05     0.999845802783966        -0.00382918352261186     6.5489235566929E-05      -3.03035412798636E-05    1.20651520774118E-06     -1.11382760223933E-05   
             -3.35124059347436E-06    2.28417975449702E-05     -1.13714286271716E-05    -1.64929758739163E-06    0.999935448169708        -0.00381973199546337     6.06533512836904E-06     -4.00000208173878E-05   
             -2.12301038118312E-05    -4.91965474793687E-05    -2.46765303018037E-05    5.90390664001461E-05     -1.64360862981994E-05    -2.85142286884366E-05    0.999700248241425        -0.0040662013925612     
90           -0.00125226960517466     0.00107821740675718      2.73922978522023E-06     -1.20676677397569E-05    -3.35059739882126E-05    -4.51444393547717E-05    -1.56621554197045E-05    3.50749578501564E-05    
             -1.96680666704196E-05    8.93252217792906E-05     0.999965131282806        -0.00439924048259854     2.4334005502169E-05      -2.40730569203151E-05    5.93337645113934E-05     1.97301687876461E-05    
             2.16692260437412E-05     1.9612625692389E-05      -1.45737567436299E-05    3.20586295856629E-05     0.999907553195953        -0.00434549525380135     -5.76508182348334E-06    -1.47233313327888E-05   
             -1.50325058712042E-05    -1.80656043085037E-05    -1.82471158041153E-05    -2.07183093152707E-05    -6.03296612098347E-05    -2.3086415239959E-05     0.999909341335297        -0.00449716625735164    
100          -0.00122568674851209     0.00109246280044317      -1.19903697850532E-05    6.18783305981196E-05     -1.49364916524064E-06    -2.10118378163315E-06    -3.27950692735612E-05    -4.37166236224584E-05   
             3.54795301973354E-05     -7.1785530053603E-07     1.00008070468903         -0.00492831459268928     1.02315525509766E-05     -3.00459632853745E-05    -5.52009805687703E-05    -2.54624501394574E-06   
             -8.06854804977775E-05    3.76953139493708E-05     1.00611287052743E-05     3.6599398299586E-05      0.999815165996552        -0.00501145701855421     -4.40371804870665E-05    2.7785581551143E-06     
             1.8208254914498E-05      3.41563122674415E-06     4.61716945210355E-06     1.46986030813423E-05     -3.34296528308187E-05    1.14713475340977E-05     0.999890208244324        -0.00507700303569436    
110          -0.00110262306407094     0.00126937578897923      3.18625498039182E-05     2.67329050984699E-05     -1.08781805465696E-05    3.83477017749101E-05     -1.43533770824433E-05    -7.6340102168615E-06    
             2.83923640154171E-09     -2.08511701202951E-05    1.00009417533875         -0.00563924014568329     -3.54373114532791E-05    2.82055279967608E-05     -3.89172455470543E-05    -1.50632122313255E-05   
             4.22796110797208E-05     4.63138385384809E-05     8.45913473312976E-06     2.2425338102039E-05      1.00010633468628         -0.00557034695520997     1.10578912426718E-05     -3.71879946214904E-06   
             -3.17475532938261E-05    3.06540969177149E-05     -5.55600308871362E-05    3.91652019970934E-06     -3.79619668819942E-05    -1.21102239063475E-05    1.00015842914581         -0.00559261348098516    
120          -0.00106494058854878     0.00120869639795274      -2.07370358111802E-05    -1.26607183119631E-05    -2.87249313259963E-05    2.03955532924738E-05     4.24788522650488E-05     2.91013748210389E-05    
             -1.69145514519187E-05    1.62924970936729E-05     1.0000364780426          -0.00602744380012155     -7.57596717448905E-06    -8.84927721926942E-05    -2.92445783998119E-05    -6.39741028862773E-06   
             0.000107360428955872     -1.55405759869609E-05    1.82040475920076E-05     -8.10840083431685E-06    1.00005352497101         -0.00600827671587467     3.9162583561847E-05      -2.70797027042136E-05   
             -7.79225956648588E-06    3.03587275993777E-05     2.05498072318733E-05     -8.48974596010521E-05    -3.20872277370654E-06    9.07269786694087E-05     1.000124335289           -0.00605409778654575    
130          -0.000944577564951032    0.0013335794210434       1.16220326162875E-05     -2.06194090424106E-05    -3.96296059079759E-07    -3.80575002054684E-05    -3.68468972737901E-05    5.83872424613219E-05    
             9.78829993982799E-05     4.35756101069273E-06     1.00025284290314         -0.00646399054676294     -3.34196265612263E-05    -4.5617314754054E-05     4.14217429351993E-05     -2.99356470350176E-05   
             4.73258405691013E-05     5.51125449419487E-05     2.75191196124069E-05     1.31038916606485E-06     1.0003981590271          -0.00665288139134645     2.26587253564503E-05     5.60673033760395E-05    
             -4.72677811558242E-06    8.8218412201968E-06      -7.96000313130207E-06    -3.29397289533517E-06    -5.02751572639681E-05    -1.88094145414652E-06    1.00010216236115         -0.00682982476428151    
140          -0.000873657234478742    0.00131799641530961      -3.65030427929014E-05    -4.9871152441483E-05     3.08139642584138E-05     1.23608942885767E-05     3.84603190468624E-05     -5.20563553436659E-05   
             -8.22362608232652E-07    -1.61484731506789E-05    1.00030755996704         -0.00688099768012762     4.38357783423271E-05     2.40791086980607E-05     3.92510046367534E-05     -2.60369470197475E-05   
             3.94498738387483E-06     -7.12526889401488E-05    6.44693864160217E-05     -3.3612891456869E-06     1.00031745433807         -0.00711218407377601     -1.07577334347297E-05    -1.67956977747963E-06   
             -7.98939436208457E-05    -2.56675484706648E-05    4.49686776846647E-05     -6.85358827468008E-05    -5.37793712283019E-05    3.53016221197322E-05     1.00018584728241         -0.0075081679970026     
150          -0.000878054648637772    0.00128751364536583      -6.0029822634533E-05     2.12829145311844E-05     -2.7968528229394E-05     -2.57081956078764E-06    9.57393858698197E-05     -4.63251817564014E-05   
             -5.76355487282854E-05    3.23474378092214E-05     1.00028431415558         -0.00745730614289641     3.78640979761258E-05     3.9432015910279E-05      -4.86827739223372E-05    -4.68692705908325E-05   
             3.43498977599666E-05     2.212268555013E-05       7.43972632335499E-05     -2.14028168556979E-05    1.0003627538681          -0.00790977105498314     1.37590077429195E-05     -3.05519643006846E-06   
             7.913386070868E-05       -4.51416462965426E-06    5.7542888498574E-06      -3.45828957506455E-05    3.49639994965401E-05     4.33785244240426E-05     1.00003099441528         -0.00778759690001607    
160          -0.000821203284431249    0.00122675881721079      3.44966174452566E-05     -9.87826861091889E-05    4.28953608206939E-05     5.55847473151516E-05     3.84860977646895E-05     -1.23641202662839E-05   
             -9.37893491936848E-06    1.47984128489043E-05     1.00027871131897         -0.00811142008751631     6.8433901105891E-06      -1.58768270921428E-05    -7.90382728155237E-06    2.22694616240915E-05    
             -3.06522924802266E-05    -8.74323268362787E-06    1.49161878653103E-05     -5.91464522585738E-05    1.0001984834671          -0.00818602740764618     -1.52775974129327E-05    1.48865865412517E-05    
             -0.000100830533483531    -1.11581621240475E-05    9.1260953922756E-06      -2.81994416582165E-05    2.95868926514231E-06     -3.27269226545468E-05    1.00017094612122         -0.00814354233443737    
170          -0.000757379166316241    0.00139784230850637      3.81970530725084E-05     -6.30313024885254E-06    -5.11673715664074E-06    -2.44729799305787E-05    -2.99006624118192E-05    -3.14255739795044E-05   
             -3.0758495995542E-05     -5.65030932193622E-05    1.00035321712494         -0.00835059769451618     -1.13735277409432E-05    5.83173678023741E-05     0.000123493446153589     -3.60443809768185E-05   
             -3.09215465676971E-05    -7.08919324097224E-05    -8.46705079311505E-05    5.38489548489451E-05     1.00003397464752         -0.00871205702424049     -5.92612668697257E-05    7.39047027309425E-05    
             -4.53922666565632E-06    2.82379787677201E-05     -2.23944425670197E-06    -9.13741532713175E-05    4.16923394368496E-05     2.34228300541872E-05     1.00008642673492         -0.00887966714799404    
180          -0.000789963232818991    0.0014677889412269       -1.18680736704846E-06    1.49562811202486E-05     0.000102705838799011     4.70564045826904E-05     3.28307942254469E-06     -2.349174428673E-05     
             1.56052519741934E-05     -7.33550914446823E-05    0.999997019767761        -0.00902138277888298     -7.55370274418965E-05    -0.000180197443114594    3.08929629682098E-05     1.39246658363845E-05    
             7.19810486771166E-06     -2.63728070422076E-05    9.54530696617439E-05     -0.00015322890249081     1.00007975101471         -0.00917876791208982     -3.65319428965449E-05    1.2684539797192E-05     
             -4.58127396996133E-05    -2.94603160000406E-05    1.61458785896684E-06     2.55521499639144E-05     6.19602724327706E-06     1.1008311957994E-05      0.999945640563965        -0.00919721554964781    
190          -0.000616145320236683    0.00139402272179723      8.69516770762857E-06     9.34619129111525E-06     -2.73828991339542E-05    -4.19190400862135E-05    -8.40447391965427E-05    -2.56648509093793E-05   
             -6.67317863189965E-06    7.95466985437088E-05     1.00004208087921         -0.00930922292172909     -4.02676159865223E-05    3.01425516227027E-05     3.28677779179998E-05     5.58301462660893E-06    
             -3.74197361452389E-06    -7.02055913279764E-05    2.18289392250881E-06     -2.27242662731442E-06    1.00033748149872         -0.0096591142937541      1.6298699847539E-05      -2.3136984964367E-05    
             3.63756371370982E-05     3.02493463095743E-05     -4.64656568510691E-06    3.07181744574336E-06     -1.57268132170429E-05    -7.46472360333428E-05    0.999931216239929        -0.00978211127221584    
200          -0.00073409202741459     0.00141874677501619      1.14354043034837E-05     5.05271236761473E-06     -2.33222490351181E-05    -1.8556072973297E-05     -4.15919348597527E-05    -3.65130326827057E-05   
             3.54512812918983E-05     2.820452391461E-05       1.00004768371582         -0.00973786506801844     -2.09705685847439E-05    -1.63789827638539E-05    7.85025895311264E-06     -5.12615042680409E-05   
             -4.23902602051385E-05    -7.92458376963623E-05    -1.39520707307383E-05    3.08948656311259E-05     1.00021433830261         -0.0101698450744152      -1.99591613636585E-05    2.94980600301642E-05    
             4.6189710701583E-05      -9.15811233426211E-06    4.33847271779086E-05     7.45502766221762E-05     -8.00001373590931E-07    -4.1728257201612E-05     1.00000131130219         -0.00999126676470041    
210          -0.00065410666866228     0.00143217272125185      -5.03136398037896E-05    1.47242280945648E-05     -1.15433595055947E-05    3.11156895804743E-06     4.28700768679846E-05     5.07644144818187E-05    
             3.79583143512718E-05     2.68239218712552E-05     0.999958872795105        -0.010456663556397       -4.51134728791658E-05    2.84510906567448E-06     4.09989297622815E-05     -9.36599280976225E-06   
             -2.19329194806051E-05    3.21851803164463E-05     -2.7430709451437E-05     -5.91241550864652E-05    0.999922692775726        -0.0106533942744136      -2.08440196729498E-05    -8.50350261316635E-05   
             -6.50646616122685E-05    4.68415346404072E-05     2.18773402593797E-05     5.35689241587534E-06     -2.71782555500977E-05    1.39406993184821E-05     0.999892055988312        -0.010558295994997      
220          -0.000584716384764761    0.00142477755434811      2.64874179265462E-05     -1.25105334518594E-05    7.05678903614171E-05     -7.25565550965257E-05    1.27949115267256E-05     -1.00332590591279E-05   
             3.6485398595687E-05      -3.60058402293362E-05    1.00009381771088         -0.0109356567263603      -8.30673161544837E-05    6.68731536279665E-06     6.77987263770774E-05     2.50140510615893E-05    
             4.43524804722983E-05     -0.000109973640064709    5.35350736754481E-05     -1.40528209158219E-05    0.999927997589111        -0.0111203501001         6.66000269120559E-05     1.38615832838695E-05    
             2.33394421229605E-05     5.05913521919865E-05     3.33236275764648E-05     -1.953403261723E-05      -7.36824904379318E-06    0.000115429567813408     1.00004172325134         -0.0112672839313745     
230          -0.000529206532519311    0.0013530672295019       5.89414885325823E-05     -6.5016261942219E-05     -3.60398803422868E-06    -2.97200131171849E-05    2.70454092969885E-05     2.24171471927548E-05    
             -5.69825679122005E-05    5.43065907550044E-05     1.00003445148468         -0.0115058561787009      -8.62673769006506E-05    7.79410868290142E-07     -2.90510033664759E-05    5.77251239519683E-06    
             -3.92653528251685E-05    6.5552863816265E-05      7.9852259659674E-05      -7.85170632298104E-05    1.00002539157867         -0.0120090944692492      1.14579288492678E-05     7.61976625653915E-05    
