! S11 = S11
! S12 = S12
! S13 = S13
! S14 = S14
! S21 = S21
! S22 = S22
! S23 = S23
! S24 = S24
! S31 = S31
! S32 = S32
! S33 = S33
! S34 = S34
! S41 = S41
! S42 = S42
! S43 = S43
! S44 = S44
!
! FILE: E:\Projects\06_2015\060415_VNA_EOS_MUX_EVAL\SI-481-1_EOS_MUX_EVAL_A0_B0_SEL=0.s4p
!$DUT_CFG_DESC: Default 4-Port Configuration
!$NUMBER_PORTS: 4
!$DIFF_PORT_MAP: 1|2P|2|2P|0|UC|0|UC|
!$PORT_MAP: 1|1|<<<<<<|2|2|>>>>>>|3|3|<<<<<<|4|4|>>>>>>|
!
# MHz S RI R 50.00
!
! FREQ                  		S11                         			   S12                         			   S13                         			   S14
!                       		S21                         			   S22                         			   S23                         			   S24
!                       		S31                         			   S32                         			   S33                         			   S34
!                       		S41                         			   S42                         			   S43                         			   S44
!                       		
!                  	REAL     		    IMAG               	      REAL     		    IMAG               	      REAL     		    IMAG               	      REAL     		    IMAG               	      
10.00000000       0.105018839240074    0.0264794006943703       0.890311062335968   -0.0811822265386581     0.00453458772972226    0.0339528769254684    -0.00442022318020463   -0.0251080952584744    
                   0.89028924703598   -0.0811771899461746       0.104440428316593    0.0258071925491095    -0.00419823732227087   -0.0249768365174532     0.00478769093751907    0.0336558185517788    
                0.00465093506500125    0.0337818451225758    -0.00416741240769625   -0.0250381603837013       0.101903133094311    0.0217290539294481       0.892931818962097   -0.0791174247860909    
               -0.00432962691411376   -0.0251859668642282     0.00477690668776631    0.0340259671211243       0.891705751419067   -0.0792963728308678       0.103179946541786    0.0222488678991795    
               
20.00000000       0.115327164530754    0.0532446652650833       0.871910810470581    -0.162405893206596      0.0164686627686024    0.0653766766190529     -0.0145407095551491    -0.047275073826313    
                  0.872040510177612    -0.163276940584183       0.117261111736298    0.0537053048610687     -0.0146657843142748   -0.0472275465726852      0.0177444033324718    0.0645724162459373    
                  0.016458747908473    0.0655302330851555     -0.0147597985342145   -0.0476288832724094       0.113066464662552    0.0477209463715553       0.875471949577332    -0.159069821238518    
                -0.0146175976842642   -0.0473390519618988      0.0179031901061535    0.0643452033400536       0.874478816986084    -0.159905388951302       0.114242918789387    0.0469600819051266    
               
30.00000000       0.131610721349716     0.077129989862442       0.844449818134308    -0.237696900963783      0.0345446281135082    0.0928324684500694     -0.0306746996939182   -0.0658282041549683    
                  0.844234466552734    -0.238360583782196       0.135994106531143    0.0763345435261726     -0.0306522604078054   -0.0659565255045891      0.0371540226042271      0.09074317663908    
                 0.0345886535942554    0.0928381979465485     -0.0305951721966267   -0.0659927874803543       0.127976655960083    0.0671657025814056        0.84893012046814    -0.233539238572121    
                 -0.030682660639286   -0.0656315386295319      0.0368659943342209    0.0908936411142349       0.848126947879791    -0.233811676502228       0.131339654326439    0.0663005858659744    
               
40.00000000       0.154354885220528    0.0959515199065208       0.809327304363251    -0.306049257516861        0.05714450776577     0.115199945867062     -0.0508317872881889    -0.079358771443367    
                  0.808870434761047    -0.306432962417603       0.159533262252808    0.0932583957910538      -0.050663098692894    -0.079740546643734      0.0616867057979107     0.111486613750458    
                  0.057315070182085     0.115239799022675     -0.0507404319941998   -0.0798745304346085       0.147389844059944    0.0830545201897621       0.815465331077576     -0.30113884806633    
                 -0.050863042473793   -0.0794606059789658      0.0616776049137115     0.111374735832214       0.814409792423248     -0.30098620057106       0.152395218610764    0.0810220986604691    
               
50.00000000       0.179869875311852     0.108141034841537       0.768437445163727    -0.367069363594055      0.0832253322005272     0.132182031869888       -0.07354736328125   -0.0877189785242081    
                  0.767893850803375    -0.367662131786346       0.187100097537041     0.104083627462387     -0.0734012871980667   -0.0880244299769402      0.0896006748080254     0.126034691929817    
                 0.0833484679460526     0.132186353206635     -0.0735343396663666   -0.0880995690822601       0.170124635100365    0.0941183418035507       0.776084125041962    -0.361789762973785    
                -0.0734740942716599   -0.0876039862632751      0.0896386802196503     0.126002192497253       0.775461435317993     -0.36191526055336       0.177005112171173     0.089709609746933    
               
60.00000000       0.206542745232582     0.115542232990265       0.723256587982178    -0.420921295881271         0.1111696138978     0.143483623862267      -0.097439169883728   -0.0904983878135681    
                  0.722340703010559    -0.421173304319382       0.216336116194725     0.108315721154213     -0.0970471799373627   -0.0909014195203781       0.119442835450172     0.134301170706749    
                  0.111418187618256     0.143383264541626     -0.0974125415086746   -0.0910987034440041       0.194688141345978     0.099203459918499       0.732854843139648    -0.415600121021271    
                -0.0976290553808212   -0.0904172584414482       0.119426362216473     0.134288772940636       0.732092440128326    -0.415479809045792       0.203433826565742    0.0927806869149208    
               
70.00000000       0.234061568975449     0.116886124014854       0.675117492675781    -0.467038571834564       0.139917343854904     0.149481698870659      -0.121356755495071    -0.088221050798893    
                  0.674234986305237    -0.467685431241989       0.246030315756798     0.106294058263302      -0.121067091822624   -0.0885319858789444       0.149660408496857     0.136347994208336    
                  0.140124022960663     0.149268954992294      -0.121162258088589   -0.0888543650507927       0.219128608703613     0.099735789000988       0.686535716056824    -0.463207483291626    
                 -0.121469713747501   -0.0879513695836067       0.149758577346802     0.136669471859932       0.685601592063904    -0.462943375110626       0.229335501790047    0.0899818390607834    
               
80.00000000        0.26150107383728     0.113384239375591       0.625335454940796    -0.507126569747925       0.168236911296844     0.150193735957146      -0.143957629799843   -0.0808582976460457    
                  0.624321818351746      -0.5075404047966       0.274573981761932    0.0987787023186684      -0.143804088234901   -0.0815287828445435       0.179253444075584     0.132953718304634    
                  0.168541938066483      0.14994104206562      -0.144017845392227   -0.0815983861684799       0.243272319436073     0.095741406083107       0.638360857963562    -0.504132151603699    
                 -0.143961682915688   -0.0807757303118706       0.179508343338966     0.133021831512451       0.637731730937958     -0.50370728969574       0.254892587661743     0.081565372645855    
               
90.00000000       0.287143796682358     0.104839690029621       0.575023829936981    -0.540865123271942       0.195588424801826     0.146686658263206      -0.164765432476997   -0.0695251375436783    
                  0.574030935764313    -0.541240036487579       0.301725566387177    0.0858246386051178      -0.164694756269455   -0.0703432559967041       0.207292303442955     0.124503433704376    
                  0.195765495300293     0.146406605839729      -0.164914920926094   -0.0703481137752533       0.265983879566193    0.0874990969896317       0.589551746845245    -0.539181590080261    
                 -0.164873704314232   -0.0693693310022354       0.207482382655144     0.124670892953873       0.588717460632324    -0.539060056209564       0.278514325618744    0.0692558810114861    
               
100.00000000       0.311082243919373    0.0925773456692696        0.52478289604187    -0.569080531597137       0.221376776695251     0.139117613434792      -0.183193922042847    -0.054767906665802    
                    0.5235515832901    -0.569339692592621       0.325994312763214    0.0684298574924469      -0.183153405785561   -0.0556351989507675       0.233127042651176      0.11166624724865    
                  0.221520766615868     0.138853877782822      -0.183372735977173   -0.0557825490832329       0.287114262580872    0.0754971653223038       0.540371417999268    -0.568981111049652    
                 -0.183068931102753   -0.0546178668737412        0.23341192305088     0.111758522689343       0.539497792720795    -0.568945646286011       0.299501001834869    0.0527027174830437    
               
110.00000000       0.332551628351212      0.07722207903862       0.474804311990738    -0.592033386230469       0.245060786604881     0.128222674131393      -0.198707938194275   -0.0370771661400795    
                  0.473533898591995    -0.592333197593689       0.347472339868546     0.047465268522501      -0.198743462562561   -0.0381941087543964       0.256455332040787    0.0952867045998573    
                  0.245045945048332     0.127946764230728      -0.199002414941788   -0.0384336933493614       0.305647134780884     0.060734748840332       0.491434037685394    -0.594156801700592    
                  -0.19864858686924   -0.0369812697172165        0.25658506155014    0.0954352840781212        0.49034184217453    -0.594117164611816        0.31804171204567    0.0329005792737007    
               
120.00000000       0.351388514041901    0.0589069165289402       0.425856858491898    -0.610886514186859       0.266332000494003     0.114754289388657      -0.211047247052193   -0.0175274554640055    
                  0.424552768468857    -0.611079275608063       0.365648716688156    0.0237461030483246      -0.211328580975533   -0.0186124742031097       0.276636272668839    0.0759685263037682    
                  0.266492575407028     0.114405542612076      -0.211674600839615    -0.018713703379035       0.322156310081482    0.0437433868646622       0.443222045898438    -0.614939630031586    
                 -0.210893735289574   -0.0174095220863819       0.276826053857803    0.0760829970240593       0.441939681768417     -0.61479252576828       0.333605647087097    0.0107475062832236    
               
130.00000000        0.36787948012352    0.0388141348958015       0.377957791090012    -0.625785529613495        0.28541773557663    0.0992773100733757      -0.220393061637878   0.00351292174309492    
                  0.376701384782791    -0.625958621501923       0.380410343408585  -0.00253528426401317        -0.2207200974226   0.00233800406567752       0.293759077787399    0.0542871244251728    
                  0.285550534725189     0.098886251449585       -0.22110703587532   0.00219684257172048       0.336179256439209    0.0248636659234762       0.395580559968948    -0.632118105888367    
                 -0.220374807715416   0.00370315299369395       0.293949574232101     0.054439514875412       0.394492417573929    -0.631925702095032       0.345721840858459   -0.0134324980899692    
               
140.00000000       0.381432324647903     0.017230249941349        0.33121258020401    -0.637192726135254       0.302121788263321    0.0820294320583344      -0.226741895079613    0.0255408305674791    
                  0.329819440841675    -0.637254059314728       0.391672372817993   -0.0304840989410877      -0.227147236466408     0.024215804412961       0.307705849409103    0.0309103764593601    
                  0.302164345979691    0.0815010070800781      -0.227457970380783    0.0241407547146082       0.347482770681381   0.00465769320726395       0.348738014698029    -0.645745933055878    
                 -0.226620197296143    0.0257649943232536       0.307919591665268     0.030913420021534       0.347746908664703    -0.645632386207581       0.354780375957489   -0.0389735698699951    
               
150.00000000       0.392066687345505  -0.00588924484327435       0.285718351602554    -0.645564496517181       0.316305637359619    0.0633871406316757      -0.229925289750099    0.0479316487908363    
                  0.284215748310089    -0.645535171031952       0.399453967809677   -0.0592638999223709       -0.23068568110466    0.0465335883200169       0.318547159433365   0.00627256371080875    
                  0.316332757472992    0.0628781765699387      -0.231009930372238    0.0464802905917168        0.35620328783989   -0.0164264794439077       0.302880376577377     -0.65646505355835    
                 -0.229845210909843    0.0482116378843784       0.318764746189117   0.00628999480977654       0.301762402057648    -0.656235575675964       0.360348433256149   -0.0654074177145958    
               
160.00000000       0.400313675403595   -0.0295574609190226       0.241606175899506    -0.651364028453827       0.328290462493896    0.0439617671072483      -0.230418220162392    0.0703403651714325    
                  0.240007936954498    -0.651355445384979       0.404141902923584   -0.0889745131134987      -0.231266289949417    0.0690627917647362       0.326419323682785   -0.0192208867520094    
                  0.328340649604797    0.0434213429689407      -0.231610029935837    0.0689907297492027       0.362688302993774   -0.0380792655050755       0.257896453142166    -0.664358794689178    
                 -0.230236545205116     0.070563904941082       0.326616227626801    -0.019197978079319       0.256702154874802    -0.664029479026794       0.363034665584564   -0.0924739837646484    
               
170.00000000       0.406221896409988   -0.0534051433205605       0.198492959141731    -0.654647171497345       0.338209897279739     0.023936552926898      -0.228281453251839    0.0925276577472687    
                  0.196910202503204    -0.654309213161469       0.405541688203812    -0.119021117687225      -0.229214578866959    0.0910571664571762       0.331168472766876    -0.045046754181385    
                  0.338174074888229    0.0232170522212982      -0.229519486427307    0.0911257788538933       0.366843581199646   -0.0601281486451626       0.213898479938507    -0.669853687286377    
                 -0.228099972009659    0.0926850810647011       0.331478387117386   -0.0450915172696114       0.212905049324036    -0.669528365135193       0.362778544425964     -0.11968494951725    
               
180.00000000       0.409789383411407   -0.0777832269668579       0.156695276498795     -0.65583860874176       0.345963329076767   0.00332045811228454      -0.223630368709564     0.114200159907341    
                  0.155025646090508    -0.655315577983856       0.403659284114838    -0.148847952485085      -0.224904403090477     0.112388469278812       0.333394736051559   -0.0709504187107086    
                  0.345782369375229   0.00272014923393726      -0.225157529115677     0.112592220306396       0.368803143501282   -0.0821350514888763       0.170927599072456    -0.672707259654999    
                 -0.223537057638168     0.114333964884281       0.333591341972351   -0.0710831955075264       0.169795021414757    -0.672567784786224       0.359753996133804    -0.146533474326134    
               
190.00000000       0.410814523696899    -0.101922616362572       0.115874029695988    -0.654625177383423       0.351470708847046   -0.0174593757838011      -0.216692075133324     0.134827598929405    
                  0.114189684391022     -0.65419602394104       0.399064749479294    -0.178172498941422      -0.218101978302002     0.133225619792938       0.332803457975388   -0.0971013233065605    
                  0.351384043693542   -0.0180055312812328      -0.218662962317467     0.133319497108459       0.368649631738663    -0.104079134762287       0.128774598240852     -0.67358809709549    
                 -0.216487780213356      0.13501900434494       0.332930654287338   -0.0970786362886429       0.127464979887009    -0.673050701618195       0.354414373636246    -0.173015132546425    
               
200.00000000       0.410054266452789    -0.125701531767845       0.076168954372406    -0.651696681976318       0.355577826499939   -0.0379750989377499      -0.207981869578362     0.154407024383545    
                 0.0744243711233139    -0.651358664035797       0.391833692789078    -0.207069054245949      -0.209583148360252     0.153064399957657       0.329725593328476    -0.122498959302902    
                  0.355472028255463   -0.0387498065829277      -0.209868267178535     0.153151869773865        0.36675563454628    -0.125691741704941      0.0875083953142166    -0.672655761241913    
                 -0.207758650183678     0.154591456055641       0.330001950263977    -0.122540988028049      0.0862127542495728    -0.672126233577728       0.345984756946564    -0.198727056384087    
               
210.00000000        0.40772020816803    -0.149053424596787      0.0377339385449886    -0.646893322467804       0.358005821704865   -0.0585740879178047       -0.19707940518856     0.173197612166405    
                 0.0358925387263298    -0.646302938461304       0.381976217031479    -0.234997108578682      -0.198900282382965     0.171524718403816        0.32431423664093    -0.147423848509789    
                  0.357792526483536   -0.0593145079910755      -0.199324071407318     0.171760722994804       0.363154858350754    -0.146636575460434      0.0470797009766102    -0.669357299804688    
                 -0.196809977293015     0.173428028821945       0.324718117713928    -0.147486701607704      0.0459184721112251    -0.668724358081818       0.335488557815552    -0.223333030939102    
               
220.00000000       0.403105080127716    -0.172064393758774    0.000198138644918799    -0.640736699104309       0.358791530132294   -0.0791174024343491      -0.184661000967026     0.190475761890411    
               -0.00149291357956827    -0.639832735061646       0.369417667388916    -0.262169152498245      -0.186748921871185     0.188652023673058        0.31698077917099    -0.171691223978996    
                  0.358352035284042   -0.0799134001135826      -0.187047705054283     0.188916131854057        0.35785648226738    -0.167344003915787      0.0076301577500999    -0.664535939693451    
                 -0.184360221028328     0.190447717905045       0.317156225442886    -0.171885430812836     0.00643753167241812    -0.663676559925079       0.322906821966171    -0.247488155961037    
               
230.00000000       0.396779775619507    -0.194529324769974     -0.0363631546497345    -0.632619738578796       0.358051717281342    -0.099338062107563      -0.170882761478424     0.206188634037972    
                -0.0382516346871853    -0.631612658500671       0.354734510183334    -0.288112640380859      -0.173229515552521     0.204774126410484       0.307130932807922    -0.195404961705208    
                  0.357623606920242    -0.100112408399582      -0.173640578985214     0.205019563436508       0.351077079772949    -0.187489897012711     -0.0310286842286587    -0.657548904418945    
                 -0.170601561665535     0.206303432583809       0.307475000619888    -0.195508569478989     -0.0321954563260078    -0.656685471534729       0.308082520961761    -0.270195454359055    
               
