! S11 = S11
! S12 = S12
! S13 = S13
! S14 = S14
! S21 = S21
! S22 = S22
! S23 = S23
! S24 = S24
! S31 = S31
! S32 = S32
! S33 = S33
! S34 = S34
! S41 = S41
! S42 = S42
! S43 = S43
! S44 = S44
!
! FILE: E:\Projects\06_2015\060415_VNA_EOS_MUX_EVAL\SI-481-1_EOS_MUX_EVAL_A0_B0_SEL=1.s4p
!$DUT_CFG_DESC: Default 4-Port Configuration
!$NUMBER_PORTS: 4
!$DIFF_PORT_MAP: 1|2P|2|2P|0|UC|0|UC|
!$PORT_MAP: 1|1|<<<<<<|2|2|>>>>>>|3|3|<<<<<<|4|4|>>>>>>|
!
# MHz S RI R 50.00
!
! FREQ                  		S11                         			   S12                         			   S13                         			   S14
!                       		S21                         			   S22                         			   S23                         			   S24
!                       		S31                         			   S32                         			   S33                         			   S34
!                       		S41                         			   S42                         			   S43                         			   S44
!                       		
!                  	REAL     		    IMAG               	      REAL     		    IMAG               	      REAL     		    IMAG               	      REAL     		    IMAG               	      
10.00000000       0.111113980412483    0.0270552691072226    -0.00038507190765813  -0.000752973253838718     0.00430688494816422    0.0334302596747875    3.36357406922616e-005  -0.000709170824848115    
               7.49259124859236e-005  -0.000682887912262231       0.108538188040257    0.0219739004969597    -0.000149613755638711  -0.000601388164795935      0.0048436988145113    0.0337311066687107    
                0.00435388507321477    0.0332461334764957    -0.000265872542513534  -0.000534085789695382        0.11071790009737     0.022595914080739    -0.000532772217411548  -0.000511313788592815    
               -8.60541986185126e-005  -0.000836614635773003     0.00479887239634991    0.0335174538195133    -0.000557401916012168  -0.000344808242516592        0.10979063808918    0.0252870414406061    
               
20.00000000       0.121548004448414    0.0537169314920902    -0.000638749566860497  -0.000628791050985456      0.0160483382642269    0.0643972456455231    -0.000718767114449292  -0.000922620412893593    
               -0.000722269469406456  -0.000544307345990092       0.119937561452389    0.0466532558202744    -0.000563265290111303  -0.000764373224228621      0.0176350809633732    0.0640407726168633    
                 0.0162802264094353    0.0647361576557159    -0.000571375945582986  -0.000761421804782003       0.120265901088715    0.0463173314929008    -0.000661731697618961  -0.00059337739367038    
               -0.000830580538604409  -0.00104583345819265      0.0176151543855667     0.064206600189209    -0.000862294458784163  -0.000732627755496651       0.121637836098671    0.0526879839599133    
               
30.00000000       0.138454303145409    0.0760855600237846     -0.0011429195292294  -0.000574772653635591      0.0336343385279179     0.091592863202095    -0.00128186354413629  -0.00111163489054888    
                -0.0011375091271475  -0.000612443778663874       0.137027084827423    0.0661105588078499    -0.000964345817919821  -0.000883733911905438      0.0368655472993851    0.0901166871190071    
                 0.0337596461176872    0.0916590020060539    -0.000931256625335664  -0.000989980646409094       0.135215550661087     0.065674364566803    -0.00118857913184911  -0.000702353194355965    
               -0.00127687037456781  -0.00119797280058265      0.0368415042757988    0.0901444777846336    -0.00105487392283976  -0.000569443684071302       0.140423059463501    0.0746829956769943    
               
40.00000000       0.159911528229713    0.0937948450446129    -0.00173023506067693  -0.000382075842935592      0.0558126159012318     0.113902129232883    -0.00182877306360751  -0.00113685778342187    
               -0.00172432279214263  -0.000453239190392196       0.158171609044075    0.0801359787583351    -0.00150121515616775  -0.000896650133654475      0.0610839910805225     0.110798940062523    
                 0.0558292791247368     0.114043056964874    -0.00156605802476406  -0.000885075074620545       0.154257699847221    0.0807126760482788    -0.00183653307612985  -0.000362123915692791    
               -0.00190049968659878  -0.00129589496646076      0.0610896423459053     0.110823087394238    -0.00178869219962507  -0.000381780322641134        0.16379027068615    0.0911931395530701    
               
50.00000000       0.184671029448509     0.106197819113731    -0.00213327771052718  6.35536562185735e-005      0.0813526660203934     0.130873069167137     -0.0023677300196141  -0.000923917221371084    
               -0.00209857360459864  7.80083864810877e-005       0.182584494352341    0.0888019353151321    -0.00195226771757007  -0.00066168257035315      0.0888340249657631     0.125215083360672    
                 0.0814831778407097     0.131058678030968     -0.0020262433681637  -0.000486502016428858       0.176176190376282    0.0908740982413292    -0.00221920618787408  0.000159536342835054    
               -0.00240756804123521  -0.000885122804902494      0.0887518003582954     0.125282675027847    -0.00216791103594005  -8.46262701088563e-005       0.191066265106201     0.101310156285763    
               
60.00000000       0.211269959807396      0.11325840651989    -0.00252338405698538  0.000604583881795406       0.108907096087933     0.142366394400597    -0.00284994137473404  -0.000672119029331952    
               -0.00233676028437912  0.000758263457100838       0.208433955907822    0.0915568545460701     -0.0023528509773314  -0.000191929415450431       0.118302300572395     0.133568704128265    
                  0.108918003737926     0.142657995223999    -0.00241562817245722  -3.88689113606233e-005       0.200116544961929    0.0959118828177452    -0.00255802134051919  0.000772331550251693    
               -0.00278870179317892  -0.000463027390651405       0.118318922817707     0.133764058351517    -0.00250029657036066  0.000634924042969942       0.220154345035553     0.105035685002804    
               
70.00000000       0.238451957702637     0.114669151604176    -0.00248368456959724   0.00142154155764729       0.137129306793213     0.148700684309006    -0.00301346159540117  -5.92479773331434e-005    
               -0.00240787235088646   0.00129979895427823       0.234768882393837    0.0888421908020973    -0.00254183076322079  0.000385056075174361       0.148419365286827     0.135859310626984    
                  0.137366220355034     0.148735746741295    -0.00247427145950496  0.000355997530277818       0.223827719688416    0.0963840186595917      -0.002806929172948   0.00135952839627862    
               -0.00314546376466751  4.6471381210722e-005       0.148367673158646     0.135888665914536    -0.00279117422178388   0.00128136342391372       0.248979538679123     0.102494984865189    
               
80.00000000       0.265293300151825      0.11120267957449    -0.00248186592943966   0.00210747681558132       0.165330171585083     0.149930641055107    -0.00317753874696791  0.000640918733552098    
               -0.00256646517664194   0.00202300865203142       0.259812444448471    0.0808448418974876    -0.00279860571026802  0.000942521437536925       0.177632853388786      0.13241583108902    
                  0.165429636836052     0.150036662817001    -0.00267472281120718  0.000759397866204381       0.247400596737862    0.0921486616134644    -0.00273363501764834   0.00218845484778285    
               -0.00313987419940531  0.000551465607713908       0.177873402833939     0.132665231823921    -0.00268977624364197   0.00215123733505607       0.277492880821228    0.0942428857088089    
               
90.00000000       0.290771037340164     0.103036530315876    -0.00237670470960438   0.00286777433939278       0.192535474896431     0.146736279129982    -0.00316020357422531   0.00110192387364805    
               -0.00238394225016236   0.00285280356183648       0.283505767583847    0.0682031512260437    -0.00264210510067642    0.0014331437414512       0.205527365207672     0.124216824769974    
                  0.192458584904671     0.146951735019684    -0.00265095150098205   0.00145893357694149       0.269752949476242    0.0840172991156578    -0.00249586394056678   0.00288856378756464    
               -0.00326958438381553   0.00119260663632303       0.205691948533058     0.124277979135513    -0.00250371173024178   0.00294326082803309        0.30392974615097    0.0812473595142365    
               
100.00000000       0.314484179019928    0.0910184010863304    -0.00205889251083136   0.00354600441642106       0.218102619051933     0.139688536524773    -0.00305836671032012    0.0018318893853575    
               -0.00203928467817605   0.00361996120773256       0.304569870233536    0.0518109798431396    -0.00251236208714545   0.00199631112627685       0.231339648365974     0.111691899597645    
                  0.218336939811707     0.139882475137711    -0.00241142348386347   0.00196791370399296       0.290496379137039    0.0721054375171661    -0.00218884972855449   0.00380810489878058    
                -0.0030689942650497   0.00182053912431002       0.231452003121376      0.11178532242775    -0.00225788657553494   0.00371563830412924       0.327679395675659    0.0636786743998528    
               
110.00000000        0.33598804473877    0.0757598280906677    -0.00151606777217239   0.00424492685124278       0.241842985153198     0.129347518086433    -0.00282587646506727   0.00233757798559964    
               -0.00152194150723517   0.00423429766669869       0.322899609804153    0.0320237912237644    -0.00218871026299894   0.00251962873153389       0.254343926906586    0.0955275297164917    
                  0.242049649357796     0.129514560103416    -0.00220800982788205   0.00254731974564493       0.308936774730682    0.0573336444795132     -0.0017017446225509   0.00441327271983027    
               -0.00281561771407723   0.00234615453518927       0.254549592733383    0.0955793038010597    -0.00165653345175087   0.00435270182788372       0.348875284194946    0.0423775129020214    
               
120.00000000       0.354951500892639    0.0578988268971443    -0.000846198236104101   0.00473695015534759       0.263303011655808      0.11635334789753     -0.0023770488332957   0.00282150669954717    
               -0.000860071391798556   0.00470445863902569       0.338236391544342   0.00977178849279881    -0.00182604824658483   0.00291222962550819       0.274570137262344    0.0764747112989426    
                  0.263653993606567     0.116481110453606    -0.00178960920311511   0.00295045785605907        0.32511243224144    0.0403658337891102    -0.00106728088576347   0.00494476687163115    
               -0.00243992311879992   0.00281124259345233       0.274723440408707     0.076504610478878    -0.00105492735747248   0.00494294054806232       0.366711378097534    0.0184834692627192    
               
130.00000000       0.371371656656265    0.0379222705960274    -0.000119192394777201   0.00521381851285696       0.282479137182236     0.101093120872974    -0.00198703538626432   0.00315493484959006    
               -0.000145157726365142   0.00515627022832632       0.350460976362228   -0.0145376063883305    -0.00130737642757595   0.00321582914330065       0.291625559329987    0.0550818704068661    
                  0.282820850610733     0.101302735507488    -0.00138537748716772   0.00317934597842395       0.338913112878799    0.0216434616595507    -0.000405149505240843   0.00546889239922166    
               -0.00197424949146807   0.00319287087768316       0.291798889636993    0.0550957322120667    -0.000344477914040908   0.00543673615902662       0.381146550178528  -0.00770741514861584    
               
140.00000000       0.384932965040207    0.0163565948605537    0.000650246511213481   0.00550971180200577       0.299377351999283    0.0841816440224648    -0.00148141547106206   0.00342032127082348    
               0.000593767152167857   0.00548948394134641        0.35932993888855   -0.0401075072586536    -0.000830978213343769   0.00349426199682057       0.305544316768646    0.0319774895906448    
                  0.299693256616592     0.084335632622242    -0.000877235783264041   0.00347878900356591       0.350105851888657    0.0015889530768618    0.000354465504642576   0.00584180699661374    
               -0.00152993947267532   0.00343426666222513       0.305755376815796    0.0319208838045597    0.000371651200111955   0.00588045967742801       0.392024368047714   -0.0354903638362885    
               
150.00000000       0.395870208740234  -0.00647345744073391     0.00145089719444513   0.00568928010761738       0.313882201910019    0.0659208372235298    -0.000976094452198595   0.00356727535836399    
                0.00141092436388135   0.00565673969686031       0.365033388137817   -0.0665964111685753    -0.000331621442455798   0.00364233972504735       0.316473662853241   0.00762398727238178    
                  0.314213424921036    0.0660781189799309    -0.000392808316973969   0.00364916468970478       0.358877241611481   -0.0195382013916969     0.00120658241212368   0.00609265081584454    
               -0.000949561770539731   0.00357215874828398       0.316597163677216   0.00764057459309697     0.00126902491319925    0.0060547748580575        0.39943078160286   -0.0644209161400795    
               
160.00000000       0.404348492622375   -0.0300634708255529     0.00228131702169776   0.00570933800190687       0.326121836900711    0.0467316582798958    -0.000437887851148844   0.00368532002903521    
                0.00226960168220103   0.00572654511779547       0.367797523736954   -0.0936809033155441    0.000177733672899194   0.00373811717145145       0.324353456497192   -0.0175772346556187    
                  0.326451271772385    0.0468299239873886    0.000163582808454521   0.00375317828729749       0.365161508321762   -0.0411952771246433     0.00204806914553046   0.00620225165039301    
               -0.000471050065243617   0.00373227917589247       0.324567675590515   -0.0175730790942907     0.00200062082149088   0.00621275417506695       0.403487235307693   -0.0942496955394745    
               
170.00000000       0.410382270812988   -0.0541838593780994     0.00305707915686071   0.00566724082455039       0.336161851882935    0.0268927589058876    4.46313279098831e-005   0.00370743684470654    
                0.00308729964308441   0.00568435806781054       0.367706388235092    -0.120805196464062     0.00070814962964505    0.0037393260281533       0.329306811094284   -0.0431460104882717    
                  0.336666911840439    0.0269157681614161    0.000713537214323878   0.00372060993686318       0.369242131710052   -0.0631521195173264      0.0028352914378047   0.00618199864402413    
               3.3980544685619e-005   0.00371222919784486       0.329568386077881   -0.0432096011936665     0.00288530089892447   0.00621242821216583       0.404566019773483    -0.124296247959137    
               
180.00000000       0.414021819829941   -0.0784111768007278      0.0038795885629952   0.00558934407308698       0.344341963529587   0.00659559667110443     0.00056129292352125   0.00353759713470936    
                0.00383865041658282   0.00555375823751092       0.364782422780991    -0.147757336497307     0.00125922227744013   0.00365349650382996       0.331542909145355   -0.0688713267445564    
                  0.344651579856873   0.00667661102488637     0.00121936900541186   0.00358397583477199       0.371083736419678   -0.0851823538541794     0.00364084681496024   0.00617377925664186    
               0.000535309198312461   0.00367322284728289       0.331784546375275   -0.0690948367118835     0.00365200685337186   0.00616022385656834       0.402604341506958    -0.154255166649818    
               
190.00000000       0.415536642074585    -0.102609671652317      0.0046403300948441   0.00522722443565726       0.350185990333557   -0.0139888059347868     0.00104794767685235   0.00342708267271519    
                0.00460162479430437   0.00519964704290032       0.359000325202942    -0.174200296401978     0.00169057573657483   0.00350301573053002       0.331073552370071   -0.0945758745074272    
                  0.350643873214722   -0.0139278955757618      0.0017268139636144   0.00351621676236391       0.371085524559021    -0.107096686959267     0.00440895045176148   0.00595976551994681    
                0.00104325707070529   0.00347711145877838       0.331341564655304   -0.0946254730224609     0.00452774995937943   0.00591351510956883       0.397782176733017    -0.183656096458435    
               
200.00000000       0.415028929710388    -0.126725301146507     0.00521229626610875   0.00492981309071183       0.354548275470734   -0.0346183441579342     0.00136305519845337   0.00340958219021559    
                0.00537528237327933   0.00498205795884132        0.35087913274765     -0.19984532892704     0.00207211333326995   0.00336966849863529       0.328244358301163    -0.119912311434746    
                  0.355064183473587   -0.0346679724752903     0.00211882800795138   0.00339171173982322       0.368987321853638    -0.128720119595528     0.00518908631056547   0.00570632936432958    
                0.00141863769385964   0.00332179828546941       0.328397661447525    -0.120018407702446     0.00519227888435125   0.00579473609104753       0.390141278505325    -0.212548449635506    
               
210.00000000       0.412669479846954    -0.150104150176048     0.00612956425175071   0.00459541520103812       0.357278406620026   -0.0550508610904217      0.0019016417209059   0.00323194777593017    
                0.00613154703751206   0.00466015422716737       0.340633571147919    -0.224643275141716     0.00272263237275183   0.00325454492121935       0.323187470436096    -0.144628033041954    
                  0.357671588659287    -0.055208258330822     0.00269037066027522   0.00323964445851743       0.365435898303986     -0.14979787170887     0.00610079569742084   0.00549451308324933    
                0.00194892997387797   0.00310973660089076       0.323498964309692    -0.144795641303062     0.00596841890364885   0.00553056597709656       0.380002409219742    -0.240385681390762    
               
220.00000000       0.408299773931503     -0.17331999540329     0.00684321532025933   0.00404195906594396       0.358394622802734   -0.0755166262388229     0.00236764107830822   0.00278525962494314    
                0.00679177325218916   0.00409780163317919       0.327908545732498    -0.248657673597336     0.00305872340686619   0.00283234706148505       0.315844506025314    -0.168805912137032    
                   0.35874542593956   -0.0755878090858459     0.00295693357475102   0.00284288777038455       0.360052287578583    -0.170698568224907     0.00681137060746551   0.00499366968870163    
                0.00234483275562525   0.00279325246810913       0.315952718257904    -0.169034734368324     0.00684214290231466   0.00505030667409301        0.36719012260437    -0.267602175474167    
               
230.00000000       0.402384579181671    -0.196072086691856     0.00742400716990232   0.00341250421479344       0.357801258563995   -0.0956782028079033     0.00260357419028878   0.00243395986035466    
                 0.0074173673056066   0.00346802338026464          0.313202470541    -0.271536231040955     0.00335839064791799   0.00258327461779118       0.306283414363861    -0.192290991544724    
                  0.358291447162628    -0.095813050866127     0.00343350530602038   0.00250056735239923       0.353374779224396    -0.190840601921082     0.00753085594624281   0.00442087417468429    
