! S11 = S11
! S12 = S12
! S13 = S13
! S14 = S14
! S21 = S21
! S22 = S22
! S23 = S23
! S24 = S24
! S31 = S31
! S32 = S32
! S33 = S33
! S34 = S34
! S41 = S41
! S42 = S42
! S43 = S43
! S44 = S44
!
! FILE: E:\Projects\06_2015\060415_VNA_EOS_MUX_EVAL\SI-489-3_EOS_MUX_EVAL_A0_B0_SEL=0.s4p
!$DUT_CFG_DESC: Default 4-Port Configuration
!$NUMBER_PORTS: 4
!$DIFF_PORT_MAP: 1|2P|2|2P|0|UC|0|UC|
!$PORT_MAP: 1|1|<<<<<<|2|2|>>>>>>|3|3|<<<<<<|4|4|>>>>>>|
!
# MHz S RI R 50.00
!
! FREQ                  		S11                         			   S12                         			   S13                         			   S14
!                       		S21                         			   S22                         			   S23                         			   S24
!                       		S31                         			   S32                         			   S33                         			   S34
!                       		S41                         			   S42                         			   S43                         			   S44
!                       		
!                  	REAL     		    IMAG               	      REAL     		    IMAG               	      REAL     		    IMAG               	      REAL     		    IMAG               	      
10.00000000       0.105570197105408    0.0271768681704998       0.889970481395721    -0.080262266099453      0.0047191958874464    0.0338169448077679    -0.00415105698630214   -0.0256052073091269    
                  0.890656471252441   -0.0799214765429497       0.104062929749489    0.0258394256234169     -0.0042380765080452   -0.0254467763006687     0.00486378883942962    0.0337038598954678    
                0.00465301144868135    0.0341129936277866    -0.00411096261814237   -0.0249271150678396       0.100989207625389    0.0237778704613447       0.897970736026764   -0.0791538506746292    
               -0.00359760946594179   -0.0250078849494457     0.00489003350958228    0.0339472852647305       0.895910620689392   -0.0798847824335098       0.099427118897438    0.0237819738686085    
               
20.00000000       0.117231465876102    0.0551993064582348       0.871943414211273    -0.161344856023788      0.0163687206804752    0.0655676126480103      -0.014795396476984   -0.0477220229804516    
                  0.872581422328949    -0.161556020379066       0.118547908961773    0.0549446456134319     -0.0147445136681199   -0.0476157329976559      0.0177250392735004    0.0647380873560905    
                 0.0165479071438313    0.0654113292694092     -0.0146251125261188   -0.0477587953209877       0.109728336334229    0.0483578443527222       0.880009651184082    -0.159216150641441    
                 -0.014784486964345   -0.0475825592875481      0.0177363306283951    0.0643450990319252        0.87861692905426    -0.159964919090271        0.11068481951952    0.0488773174583912    
               
30.00000000       0.134435266256332    0.0792420953512192       0.844847083091736    -0.236081972718239      0.0345568880438805    0.0931912884116173     -0.0309409741312265   -0.0662976875901222    
                  0.845068752765656     -0.23652945458889       0.137919843196869    0.0773193836212158     -0.0309358406811953   -0.0664056390523911      0.0371728837490082    0.0907209515571594    
                 0.0346165187656879    0.0930089429020882     -0.0308115035295486   -0.0663721561431885       0.124682649970055    0.0706276819109917       0.853504121303558    -0.233791530132294    
                   -0.0307956058532   -0.0662992745637894      0.0370418392121792    0.0906388163566589       0.852333724498749    -0.233590334653854        0.12834107875824    0.0691281631588936    
               
40.00000000       0.157454282045364    0.0983090177178383       0.809985160827637    -0.304280430078506      0.0573623962700367     0.115413099527359     -0.0513037331402302   -0.0801935568451881    
                  0.810266971588135    -0.304517298936844       0.161135658621788    0.0942831933498383     -0.0510211512446404   -0.0801384523510933      0.0616356991231442      0.11161982268095    
                 0.0575573407113552     0.115183800458908     -0.0510067045688629   -0.0800875425338745       0.146063536405563    0.0872205644845963       0.819787919521332    -0.301436632871628    
                -0.0510743446648121   -0.0800156146287918      0.0615298897027969      0.11115775257349        0.81910252571106    -0.300802916288376       0.149831622838974    0.0845348834991455    
               
50.00000000       0.183199658989906     0.110702283680439       0.769191145896912    -0.365023791790009      0.0834122598171234     0.132297337055206     -0.0740460082888603   -0.0884013772010803    
                   0.76937860250473    -0.365543991327286       0.188610762357712     0.105754770338535     -0.0740209370851517   -0.0885940045118332      0.0896338000893593      0.12614631652832    
                 0.0834790468215942     0.132162466645241     -0.0739367604255676   -0.0883160457015038       0.169282197952271    0.0977004021406174       0.780587792396545    -0.362422913312912    
                -0.0739874467253685   -0.0882400125265121      0.0894524976611137     0.125821962952614       0.779856741428375    -0.362000972032547       0.174656495451927    0.0940063521265984    
               
60.00000000       0.210543587803841     0.117984600365162       0.724254012107849    -0.418569773435593       0.111460298299789      0.14362433552742     -0.0980430915951729   -0.0912713631987572    
                  0.724119961261749    -0.419143080711365       0.218096926808357     0.109900303184986     -0.0978455394506454   -0.0914629176259041       0.119328521192074     0.134517997503281    
                  0.111565433442593     0.143411189317703     -0.0979441031813622   -0.0914009436964989       0.194109052419662     0.103217355906963       0.737030982971191    -0.416609168052673    
                -0.0980094224214554   -0.0912693962454796       0.119148880243301     0.133916646242142       0.736272931098938    -0.416522175073624       0.201359540224075    0.0975558310747147    
               
70.00000000        0.23842254281044     0.119411401450634       0.676445066928864    -0.464967161417007       0.140414446592331     0.149412453174591      -0.122215889394283   -0.0887667089700699    
                  0.676372110843658      -0.4653500020504        0.24772921204567     0.107934787869453      -0.122042119503021   -0.0889885053038597        0.14962001144886     0.136412769556046    
                  0.140277564525604     0.149045526981354      -0.121719278395176   -0.0887060016393662       0.219348564743996     0.104228504002094        0.69059282541275    -0.464193850755692    
                 -0.121899522840977    -0.088531382381916       0.149296328425407     0.136023700237274       0.689932703971863     -0.46378681063652       0.227834030985832    0.0954307988286018    
               
80.00000000       0.266347050666809     0.115832179784775       0.626898407936096    -0.504835426807404       0.168880105018616     0.149963200092316      -0.144970044493675    -0.081492118537426    
                    0.6270632147789    -0.505357980728149       0.275971055030823     0.100614473223686       -0.14476203918457   -0.0817116871476173       0.179153829813004     0.133027032017708    
                  0.168762892484665     0.149591475725174      -0.144559770822525   -0.0814838409423828        0.24483260512352     0.100084327161312        0.64250248670578    -0.504979848861694    
                  -0.14488410949707   -0.0812725722789764       0.178897604346275     0.132647484540939       0.641997396945953    -0.504639983177185       0.253753483295441    0.0876377448439598    
               
90.00000000       0.292484909296036     0.107210636138916       0.576907098293304    -0.538553297519684       0.196193307638168     0.146320134401321      -0.165762960910797   -0.0700881406664848    
                  0.576976418495178    -0.538831114768982       0.303070783615112     0.088026337325573      -0.165719464421272   -0.0704747065901756       0.207225546240807     0.124517768621445    
                   0.19598488509655     0.146024361252785      -0.165523827075958   -0.0702855363488197       0.267869263887405     0.091557465493679       0.593813955783844    -0.540190756320953    
                 -0.165534824132919    -0.069916844367981       0.206773117184639     0.124267563223839       0.593080520629883    -0.539896309375763       0.277838706970215    0.0757626071572304    
               
100.00000000       0.316739588975906    0.0948432013392448       0.527168810367584    -0.566486895084381       0.221873983740807     0.138749197125435      -0.184240907430649   -0.0553158670663834    
                  0.526933014392853    -0.567064881324768       0.327688694000244    0.0709433481097221      -0.184111431241035   -0.0557998046278954       0.233016401529312     0.111731454730034    
                  0.221679076552391     0.138331264257431      -0.183962643146515   -0.0554977394640446       0.289320200681686    0.0796748548746109       0.544559121131897    -0.570121943950653    
                  -0.18404632806778   -0.0552076287567616       0.232546508312225     0.111423045396805       0.543809235095978    -0.569780647754669       0.299380540847778    0.0598172470927238    
               
110.00000000       0.338885456323624    0.0794026851654053       0.477669268846512     -0.58958512544632       0.245602622628212     0.127675116062164      -0.199863150715828   -0.0376988239586353    
                  0.477637976408005    -0.590165615081787       0.349036991596222    0.0501460507512093      -0.199766784906387    -0.038197748363018       0.255941331386566    0.0954795777797699    
                  0.245407477021217     0.127285152673721      -0.199496686458588   -0.0380649045109749       0.308874875307083    0.0649309903383255       0.495639473199844    -0.595214486122131    
                 -0.199568077921867   -0.0376086086034775         0.2555211186409    0.0951387211680412       0.494809001684189    -0.595061600208282       0.318392246961594    0.0405077189207077    
               
120.00000000       0.358251452445984    0.0608826093375683       0.429152488708496    -0.608551800251007       0.266844034194946     0.114081129431725      -0.212307453155518   -0.0181128736585379    
                  0.428855329751968    -0.609014213085175        0.36704209446907    0.0269317831844091      -0.212326034903526   -0.0185340791940689       0.276140302419662    0.0763411372900009    
                  0.266625225543976     0.113606758415699      -0.212024077773094   -0.0184091925621033       0.326262354850769    0.0474369935691357       0.447552055120468    -0.615951120853424    
                 -0.211990505456924   -0.0180072542279959       0.275575011968613    0.0761267691850662       0.446737080812454    -0.615825533866882       0.334467858076096    0.0189279746264219    
               
130.00000000       0.374869734048843    0.0404067970812321       0.381608724594116    -0.623427748680115       0.285691946744919    0.0984370112419128      -0.221737876534462   0.00297725340351462    
                  0.381281793117523    -0.624049305915833       0.382041752338409   0.00136223097797483      -0.221689894795418   0.00249383063055575       0.293337136507034    0.0549121685326099    
                  0.285426765680313    0.0979714095592499      -0.221398502588272   0.00248238397762179       0.340444713830948    0.0280280336737633       0.400031983852386    -0.633219659328461    
                 -0.221516609191895   0.00301015237346292       0.292748481035233    0.0547074042260647       0.399281352758408    -0.633071422576904       0.347182303667068  -0.00451723672449589    
               
140.00000000       0.388819098472595    0.0185038968920708       0.335431903600693    -0.635045826435089         0.3022540807724    0.0811075940728188      -0.228151842951775    0.0250303149223328    
                   0.33491525053978    -0.635591566562653       0.393749505281448   -0.0262515023350716      -0.228061586618423    0.0243889093399048       0.307195276021957    0.0316155925393105    
                  0.301955372095108    0.0805032849311829      -0.227769196033478    0.0245034769177437       0.352118462324142    0.0075151682831347       0.353403598070145    -0.646965444087982    
                 -0.227855160832405    0.0250693764537573       0.306643784046173    0.0315083526074886        0.35255366563797    -0.646888852119446       0.356888443231583   -0.0296539999544621    
               
150.00000000       0.400102972984314  -0.00482635153457522       0.290295124053955    -0.643742024898529       0.316324204206467    0.0623708292841911      -0.231378123164177    0.0475163608789444    
                   0.28979879617691    -0.644337713718414       0.401718765497208   -0.0546729564666748      -0.231509178876877    0.0468242913484573       0.318032473325729   0.00728167360648513    
                   0.31597301363945    0.0618790686130524      -0.231142520904541    0.0468106679618359       0.361584842205048   -0.0140148485079408        0.30760332942009    -0.657955527305603    
                 -0.231056705117226    0.0475148856639862       0.317369192838669   0.00720325764268637       0.306807786226273    -0.657653748989105       0.363224685192108   -0.0557661801576614    
               
160.00000000       0.408642053604126   -0.0289767347276211       0.246433958411217    -0.649815320968628        0.32806009054184    0.0429510846734047      -0.231931552290916    0.0698483139276505    
                  0.245812565088272    -0.650396108627319       0.406532883644104   -0.0836896672844887      -0.232004001736641    0.0692222490906715       0.325974494218826   -0.0179409645497799    
                  0.327680289745331    0.0423962026834488      -0.231683149933815     0.069194108247757        0.36855611205101     -0.03630331158638       0.262882560491562     -0.66602098941803    
                 -0.231645822525024    0.0698194652795792       0.325266659259796   -0.0179583095014095        0.26195427775383    -0.665691733360291       0.366584479808807   -0.0823596566915512    
               
170.00000000       0.414803206920624   -0.0531461648643017       0.203727751970291    -0.653252303600311       0.337725669145584    0.0229499917477369      -0.229921281337738    0.0919384434819222    
                  0.203088045120239    -0.653813600540161        0.40843003988266    -0.113045103847981      -0.229956403374672    0.0912085846066475       0.330943644046783   -0.0435636043548584    
                  0.337325930595398    0.0223206505179405      -0.229570835828781    0.0912516638636589       0.372896939516068   -0.0589373558759689       0.219077304005623    -0.671763122081757    
                 -0.229624688625336    0.0919216573238373       0.330280274152756   -0.0435307435691357       0.218194708228111    -0.671410083770752       0.367156654596329    -0.109151788055897    
               
180.00000000        0.41867983341217   -0.0778955817222595       0.162193864583969    -0.654986798763275       0.345456272363663    0.0023791363928467      -0.225406751036644     0.113664090633392    
                   0.16148966550827    -0.655270040035248       0.407130479812622      -0.1425521671772      -0.225593417882919     0.112698301672935       0.333216935396194   -0.0693042874336243    
                  0.344857960939407   0.00182422366924584      -0.225210189819336     0.112637460231781       0.375108391046524   -0.0815276652574539       0.176207959651947    -0.675073802471161    
                 -0.224977254867554      0.11356982588768       0.332624673843384   -0.0693664848804474        0.17517526447773    -0.674740314483643       0.365047693252563    -0.135710939764977    
               
190.00000000       0.420099973678589    -0.102376438677311        0.12166053801775     -0.65437924861908       0.350862622261047   -0.0182559303939343      -0.218656778335571     0.134375497698784    
                  0.120940022170544    -0.654634594917297       0.402862936258316    -0.171654611825943      -0.218832388520241     0.133382752537727        0.33286252617836   -0.0950900539755821    
                  0.350384563207626   -0.0187962893396616      -0.218533158302307     0.133329510688782       0.375544607639313    -0.104016996920109       0.134196251630783    -0.676240205764771    
                 -0.218338087201118     0.134205058217049       0.332219272851944   -0.0949799567461014       0.133021593093872    -0.675774335861206        0.36050683259964    -0.161890596151352    
               
200.00000000       0.419281929731369    -0.126711323857307      0.0821271315217018    -0.651959180831909       0.354722082614899    -0.038900475949049      -0.210121691226959     0.153943046927452    
                 0.0811673924326897    -0.652289688587189       0.395925432443619    -0.200072079896927      -0.210142686963081     0.153123050928116       0.330051749944687    -0.120288856327534    
                  0.354160457849503   -0.0394196957349777      -0.209878414869308      0.15293525159359       0.373568683862686    -0.126603439450264       0.092780314385891    -0.675422728061676    
                 -0.209738627076149     0.153747469186783       0.329379558563232    -0.120159134268761       0.091638520359993    -0.674846768379211       0.352968811988831    -0.187412172555923    
               
210.00000000       0.416794627904892    -0.150546759366989      0.0438987389206886    -0.647493422031403       0.356912910938263   -0.0593170411884785      -0.199400037527084     0.172820135951042    
                 0.0427861995995045     -0.64771294593811       0.386633276939392    -0.227908059954643      -0.199433982372284     0.171691164374352       0.325013697147369    -0.145159527659416    
                  0.356416016817093   -0.0599115528166294      -0.199280068278313     0.171433001756668       0.369847774505615    -0.148405209183693      0.0524494983255863    -0.672624468803406    
                 -0.199140965938568     0.172708481550217       0.324459731578827    -0.144897893071175      0.0514302402734756    -0.672010123729706       0.343421936035156    -0.211917608976364    
               
220.00000000       0.412493467330933    -0.174273937940598      0.0065701873973012    -0.641701936721802       0.357471168041229    -0.079757072031498       -0.18719682097435     0.190178617835045    
                0.00552852032706141    -0.641926944255829       0.375054091215134    -0.255006641149521      -0.187444433569908     0.188641622662544       0.317665189504623    -0.169320106506348    
                   0.35670205950737   -0.0803429633378983       -0.18708148598671     0.188603758811951       0.364458620548248    -0.169929087162018      0.0127809308469296    -0.667868137359619    
                 -0.186895996332169     0.190092518925667       0.317101657390594    -0.169008672237396      0.0117255952209234     -0.66745787858963       0.331844300031662    -0.235773041844368    
               
230.00000000       0.406134635210037    -0.197374790906906     -0.0299853850156069    -0.634132564067841       0.356296598911285   -0.0995914563536644      -0.173700928688049     0.206254824995995    
                 -0.031237818300724    -0.634296000003815        0.36113041639328    -0.280775457620621      -0.174082338809967     0.204523101449013       0.308333933353424    -0.192829161882401    
                  0.355665594339371    -0.100262761116028      -0.173902422189713     0.204324200749397       0.357502698898315    -0.190543368458748     -0.0261557567864656    -0.661392211914063    
                 -0.173277005553246     0.206040859222412       0.307806730270386     -0.19249039888382     -0.0270392876118422    -0.660529613494873       0.318054050207138    -0.258381247520447    
               
